! Mini-Circuits														
! S7P DATA File Format														
! Type: 6 Way 0 degree Power Splitter														
! Model: AD6PS-1+      														
! PINOUT: SUMPORT=PORT7 , OUT1 PORT=PORT1 , OUT2 PORT=PORT2 , OUT3 PORT=PORT3 , OUT4 PORT=PORT4 , OUT5 PORT=PORT5 , OUT6 PORT=PORT6														
! TEST CONDITIONS: INPUT POWER = 0 dBm @ Temperature = + 85 deg C														
! 401 Frequency points														
!														
! All S Parameters are in dB deg format														
!														
# MHz S DB R 50														
!														
! FREQ  MAG(S11)PHS(S11)MAG(S12)PHS(S12)MAG(S13)PHS(S13)MAG(S14)PHS(S14)MAG(S15)PHS(S15)MAG(S16)PHS(S16)MAG(S17)PHS(S17)  
!	MAG(S21)PHS(S21)MAG(S22)PHS(S22)MAG(S23)PHS(S23)MAG(S24)PHS(S24)MAG(S25)PHS(S25)MAG(S26)PHS(S26)MAG(S27)PHS(S27)  
!	MAG(S31)PHS(S31)MAG(S32)PHS(S32)MAG(S33)PHS(S33)MAG(S34)PHS(S34)MAG(S35)PHS(S35)MAG(S36)PHS(S36)MAG(S37)PHS(S37)  
!	MAG(S41)PHS(S41)MAG(S42)PHS(S42)MAG(S43)PHS(S43)MAG(S44)PHS(S44)MAG(S45)PHS(S45)MAG(S46)PHS(S46)MAG(S47)PHS(S47)  
!	MAG(S51)PHS(S51)MAG(S52)PHS(S52)MAG(S53)PHS(S53)MAG(S54)PHS(S54)MAG(S55)PHS(S55)MAG(S56)PHS(S56)MAG(S57)PHS(S57)  
!	MAG(S61)PHS(S61)MAG(S62)PHS(S62)MAG(S63)PHS(S63)MAG(S64)PHS(S64)MAG(S65)PHS(S65)MAG(S66)PHS(S66)MAG(S67)PHS(S67)  
!	MAG(S71)PHS(S71)MAG(S72)PHS(S72)MAG(S73)PHS(S73)MAG(S74)PHS(S74)MAG(S75)PHS(S75)MAG(S76)PHS(S76)MAG(S77)PHS(S77)  
!
2.00	-17.89	147.28	-34.97	148.66	-27.46	-25.88	-24.18	-25.34	-27.47	-27.06	-36.80	148.56	-8.05	-0.16
	-35.03	148.74	-17.93	147.06	-35.25	156.74	-27.41	-27.10	-24.16	-25.02	-27.12	-23.80	-8.05	-0.07
	-27.47	-25.68	-35.21	156.72	-17.84	146.18	-34.62	153.90	-26.78	-25.53	-24.10	-24.64	-8.06	-0.11
	-24.19	-25.12	-27.41	-27.15	-34.60	153.87	-17.63	146.24	-38.64	145.98	-27.09	-26.32	-8.06	-0.10
	-27.48	-26.84	-24.15	-25.10	-26.76	-25.56	-38.61	146.15	-17.66	146.40	-33.52	159.15	-8.06	-0.12
	-36.80	148.87	-27.11	-23.88	-24.08	-24.69	-27.11	-26.53	-33.50	159.00	-17.85	146.81	-8.05	-0.18
	-8.05	0.00	-8.05	-0.11	-8.05	-0.12	-8.06	-0.13	-8.05	-0.16	-8.06	0.01	-26.85	151.24
5.75	-21.24	154.30	-37.83	146.71	-30.40	-16.97	-26.97	-16.97	-30.37	-16.90	-39.87	147.59	-8.03	-2.44
	-37.88	146.44	-21.33	154.45	-37.34	153.85	-30.36	-16.30	-26.95	-17.01	-29.76	-15.57	-8.04	-2.43
	-30.40	-16.68	-37.29	154.23	-21.25	153.91	-37.24	146.65	-29.52	-15.40	-26.85	-16.59	-8.05	-2.47
	-26.98	-16.91	-30.37	-16.38	-37.24	146.63	-21.02	154.58	-41.55	138.54	-29.95	-15.51	-8.05	-2.50
	-30.39	-16.75	-26.95	-17.05	-29.52	-15.48	-41.49	139.31	-21.00	154.91	-35.81	152.71	-8.04	-2.48
	-39.88	147.76	-29.78	-15.61	-26.84	-16.66	-29.98	-15.77	-35.82	152.58	-21.21	154.87	-8.03	-2.48
	-8.05	-2.36	-8.05	-2.46	-8.05	-2.53	-8.06	-2.48	-8.05	-2.50	-8.05	-2.37	-28.10	148.67
9.49	-22.24	158.28	-38.48	142.84	-31.16	-10.22	-27.68	-11.33	-31.07	-10.21	-40.64	144.87	-8.05	-4.29
	-38.51	142.53	-22.36	158.82	-37.82	149.90	-31.04	-9.04	-27.67	-11.36	-30.44	-9.73	-8.05	-4.30
	-31.15	-9.88	-37.76	150.15	-22.25	158.00	-37.87	141.07	-30.16	-8.66	-27.56	-10.94	-8.06	-4.36
	-27.68	-11.19	-31.05	-9.01	-37.87	141.00	-22.00	159.02	-41.83	131.27	-30.60	-8.38	-8.06	-4.41
	-31.08	-10.02	-27.67	-11.37	-30.15	-8.78	-41.74	131.86	-21.94	159.22	-36.49	148.22	-8.06	-4.34
	-40.63	145.05	-30.45	-9.76	-27.55	-11.03	-30.64	-8.59	-36.52	148.17	-22.19	159.21	-8.05	-4.35
	-8.06	-4.19	-8.06	-4.30	-8.06	-4.46	-8.07	-4.40	-8.06	-4.38	-8.06	-4.24	-28.07	140.60
13.24	-22.69	160.10	-38.57	137.83	-31.39	-5.54	-27.90	-7.75	-31.26	-5.86	-40.85	140.46	-8.06	-6.05
	-38.61	137.57	-22.81	161.20	-37.84	144.95	-31.20	-4.14	-27.91	-7.79	-30.66	-5.85	-8.06	-6.05
	-31.38	-5.32	-37.78	145.03	-22.68	159.91	-37.92	135.21	-30.32	-4.30	-27.79	-7.34	-8.08	-6.20
	-27.92	-7.64	-31.22	-4.18	-37.92	135.00	-22.41	161.22	-41.39	123.99	-30.76	-3.72	-8.07	-6.23
	-31.27	-5.73	-27.91	-7.83	-30.31	-4.40	-41.36	124.25	-22.34	161.26	-36.66	143.40	-8.07	-6.13
	-40.81	140.47	-30.66	-5.87	-27.78	-7.40	-30.79	-3.84	-36.67	143.30	-22.64	161.25	-8.06	-6.11
	-8.07	-5.95	-8.08	-6.07	-8.08	-6.26	-8.09	-6.23	-8.07	-6.16	-8.08	-6.02	-27.71	132.04
16.98	-22.94	160.81	-38.40	132.44	-31.42	-2.19	-27.97	-5.32	-31.27	-2.87	-40.76	135.45	-8.07	-7.72
	-38.41	132.07	-23.07	162.34	-37.68	139.44	-31.20	-0.76	-27.98	-5.45	-30.69	-3.06	-8.07	-7.79
	-31.42	-1.93	-37.67	139.55	-22.92	160.68	-37.71	129.24	-30.32	-1.24	-27.86	-4.85	-8.09	-7.96
	-27.98	-5.19	-31.20	-0.70	-37.73	129.11	-22.63	162.06	-40.79	117.21	-30.74	-0.41	-8.08	-8.00
	-31.28	-2.72	-27.98	-5.38	-30.32	-1.33	-40.73	117.39	-22.56	162.11	-36.64	138.37	-8.09	-7.86
	-40.76	135.63	-30.70	-3.08	-27.85	-4.95	-30.76	-0.46	-36.65	138.27	-22.90	162.09	-8.07	-7.82
	-8.08	-7.64	-8.09	-7.75	-8.09	-8.01	-8.10	-7.91	-8.09	-7.92	-8.08	-7.73	-27.20	124.30
20.00	-23.06	160.84	-38.14	128.02	-31.37	-0.15	-27.96	-3.98	-31.23	-1.13	-40.64	131.08	-8.08	-9.10
	-38.15	127.72	-23.19	162.74	-37.51	134.95	-31.13	1.33	-27.98	-4.06	-30.66	-1.44	-8.09	-9.15
	-31.37	0.08	-37.48	135.18	-23.04	160.74	-37.42	124.78	-30.26	0.60	-27.85	-3.46	-8.10	-9.36
	-27.97	-3.87	-31.14	1.30	-37.42	124.70	-22.74	162.25	-40.19	112.10	-30.66	1.60	-8.10	-9.40
	-31.23	-0.98	-27.98	-4.00	-30.25	0.46	-40.14	112.34	-22.66	162.22	-36.50	134.35	-8.10	-9.24
	-40.63	131.43	-30.66	-1.42	-27.84	-3.58	-30.69	1.51	-36.51	133.99	-23.03	162.20	-8.08	-9.19
	-8.09	-9.01	-8.10	-9.13	-8.10	-9.43	-8.11	-9.34	-8.09	-9.28	-8.09	-9.10	-26.72	118.75
24.47	-23.19	160.51	-37.74	121.83	-31.25	2.28	-27.92	-2.38	-31.12	0.99	-40.36	124.98	-8.09	-11.10
	-37.73	121.68	-23.33	162.96	-37.20	128.78	-30.98	3.85	-27.94	-2.49	-30.58	0.51	-8.10	-11.15
	-31.24	2.58	-37.16	129.07	-23.17	160.41	-36.91	118.54	-30.14	2.75	-27.81	-1.78	-8.11	-11.43
	-27.94	-2.25	-30.99	3.87	-36.92	118.40	-22.85	162.13	-39.32	105.71	-30.52	3.99	-8.11	-11.45
	-31.12	1.13	-27.93	-2.47	-30.12	2.68	-39.29	106.00	-22.77	161.97	-36.23	128.25	-8.11	-11.28
	-40.36	125.20	-30.57	0.56	-27.81	-1.91	-30.54	3.90	-36.25	128.23	-23.18	161.93	-8.09	-11.21
	-8.10	-11.00	-8.11	-11.11	-8.12	-11.48	-8.12	-11.40	-8.11	-11.32	-8.11	-11.11	-25.99	111.39
28.22	-23.26	160.06	-37.33	117.06	-31.11	3.93	-27.86	-1.49	-30.99	2.24	-40.11	119.86	-8.11	-12.75
	-37.29	116.95	-23.42	162.87	-36.87	123.69	-30.84	5.47	-27.88	-1.54	-30.47	1.78	-8.11	-12.84
	-31.10	4.21	-36.83	124.05	-23.24	159.95	-36.45	113.86	-30.01	4.18	-27.75	-0.81	-8.13	-13.14
	-27.87	-1.28	-30.86	5.53	-36.44	113.59	-22.93	161.75	-38.59	100.97	-30.37	5.51	-8.12	-13.17
	-31.00	2.42	-27.88	-1.53	-30.00	4.03	-38.62	101.47	-22.85	161.57	-35.93	123.71	-8.12	-12.97
	-40.08	120.15	-30.48	1.78	-27.74	-0.94	-30.39	5.37	-35.96	123.67	-23.30	161.49	-8.11	-12.88
	-8.12	-12.67	-8.12	-12.79	-8.13	-13.20	-8.14	-13.13	-8.12	-13.00	-8.12	-12.79	-25.39	105.97
31.96	-23.32	159.57	-36.91	112.64	-30.96	5.10	-27.79	-0.72	-30.87	3.34	-39.79	115.18	-8.12	-14.39
	-36.86	112.49	-23.50	162.63	-36.52	119.19	-30.67	6.79	-27.80	-0.86	-30.35	2.72	-8.13	-14.50
	-30.94	5.43	-36.48	119.26	-23.31	159.38	-35.97	109.52	-29.87	5.35	-27.68	-0.03	-8.14	-14.85
	-27.79	-0.61	-30.69	6.86	-35.96	109.42	-23.00	161.24	-37.91	97.05	-30.20	6.86	-8.13	-14.88
	-30.87	3.46	-27.81	-0.79	-29.86	5.21	-37.90	97.50	-22.91	161.05	-35.62	119.23	-8.13	-14.66
	-39.80	115.32	-30.35	2.78	-27.66	-0.13	-30.21	6.65	-35.62	119.22	-23.38	160.90	-8.12	-14.55
	-8.13	-14.32	-8.13	-14.44	-8.14	-14.92	-8.15	-14.81	-8.13	-14.70	-8.13	-14.46	-24.78	101.18
35.71	-23.38	158.85	-36.45	108.42	-30.79	6.08	-27.70	-0.13	-30.72	4.14	-39.45	110.45	-8.13	-16.07
	-36.43	108.35	-23.56	162.43	-36.16	114.72	-30.49	7.85	-27.72	-0.25	-30.23	3.52	-8.14	-16.17
	-30.79	6.46	-36.13	115.02	-23.37	158.75	-35.48	105.57	-29.73	6.27	-27.58	0.60	-8.15	-16.56
	-27.71	0.00	-30.51	7.96	-35.46	105.53	-23.06	160.69	-37.27	93.26	-30.03	7.87	-8.14	-16.57
	-30.72	4.23	-27.73	-0.18	-29.72	6.13	-37.27	93.67	-22.97	160.49	-35.26	115.06	-8.15	-16.35
	-39.44	110.97	-30.22	3.50	-27.56	0.48	-30.05	7.76	-35.33	114.92	-23.47	160.12	-8.13	-16.21
	-8.14	-15.97	-8.15	-16.11	-8.15	-16.60	-8.16	-16.51	-8.14	-16.38	-8.14	-16.12	-24.21	96.89
39.45	-23.44	158.25	-36.04	104.78	-30.63	6.94	-27.61	0.23	-30.57	4.74	-39.13	106.35	-8.14	-17.68
	-35.98	104.56	-23.63	162.20	-35.81	110.95	-30.32	8.76	-27.63	0.15	-30.08	4.16	-8.15	-17.82
	-30.62	7.39	-35.76	110.88	-23.43	158.04	-35.01	101.93	-29.58	7.03	-27.49	1.07	-8.16	-18.25
	-27.62	0.39	-30.33	8.81	-35.02	101.78	-23.12	160.16	-36.69	90.13	-29.85	8.79	-8.15	-18.26
	-30.59	4.88	-27.63	0.17	-29.56	6.98	-36.64	90.36	-23.03	159.86	-34.92	111.15	-8.16	-18.04
	-39.11	106.53	-30.09	4.12	-27.47	0.98	-29.87	8.58	-34.99	111.23	-23.56	159.42	-8.14	-17.87
	-8.16	-17.62	-8.16	-17.77	-8.16	-18.29	-8.17	-18.22	-8.16	-18.04	-8.16	-17.78	-23.68	93.08
43.20	-23.49	157.54	-35.61	101.25	-30.46	7.61	-27.51	0.56	-30.42	5.17	-38.80	102.29	-8.16	-19.34
	-35.56	101.12	-23.69	161.97	-35.43	106.92	-30.14	9.47	-27.53	0.45	-29.94	4.62	-8.16	-19.44
	-30.44	8.08	-35.40	107.12	-23.49	157.46	-34.56	98.56	-29.41	7.74	-27.38	1.44	-8.18	-19.95
	-27.53	0.66	-30.16	9.40	-34.54	98.55	-23.18	159.65	-36.10	87.23	-29.67	9.37	-8.16	-19.95
	-30.42	5.40	-27.54	0.47	-29.41	7.52	-36.08	87.35	-23.08	159.36	-34.57	107.56	-8.17	-19.70
	-38.81	102.41	-29.96	4.53	-27.38	1.31	-29.68	9.16	-34.62	107.55	-23.64	158.57	-8.15	-19.53
	-8.16	-19.26	-8.17	-19.41	-8.17	-20.00	-8.19	-19.88	-8.17	-19.73	-8.17	-19.42	-23.18	89.55
46.94	-23.55	156.93	-35.19	98.18	-30.28	8.03	-27.41	0.74	-30.26	5.55	-38.48	98.48	-8.17	-20.95
	-35.16	97.75	-23.78	161.72	-35.10	103.24	-29.95	10.11	-27.43	0.68	-29.79	4.89	-8.17	-21.11
	-30.26	8.55	-35.07	103.59	-23.55	156.77	-34.12	95.50	-29.26	8.10	-27.28	1.68	-8.19	-21.62
	-27.41	0.93	-29.97	10.11	-34.11	95.35	-23.26	159.16	-35.59	84.36	-29.49	9.93	-8.18	-21.67
	-30.27	5.64	-27.44	0.72	-29.25	8.07	-35.56	84.68	-23.14	158.68	-34.23	104.12	-8.18	-21.35
	-38.47	98.79	-29.80	4.92	-27.27	1.56	-29.52	9.75	-34.28	104.01	-23.72	157.73	-8.16	-21.17
	-8.18	-20.88	-8.18	-21.07	-8.19	-21.67	-8.19	-21.56	-8.18	-21.37	-8.18	-21.07	-22.71	86.20
50.69	-23.60	156.32	-34.83	94.88	-30.10	8.39	-27.30	0.87	-30.11	5.76	-38.17	94.82	-8.18	-22.58
	-34.77	94.85	-23.85	161.52	-34.76	100.09	-29.77	10.49	-27.33	0.78	-29.65	5.10	-8.18	-22.74
	-30.08	8.83	-34.71	100.42	-23.62	156.10	-33.68	92.71	-29.10	8.46	-27.17	1.81	-8.20	-23.31
	-27.32	1.02	-29.78	10.49	-33.70	92.60	-23.33	158.64	-35.10	81.82	-29.30	10.35	-8.19	-23.33
	-30.10	5.91	-27.34	0.77	-29.10	8.37	-35.09	82.15	-23.22	158.08	-33.89	100.96	-8.19	-23.04
	-38.17	94.95	-29.66	5.19	-27.17	1.72	-29.34	10.17	-33.96	100.94	-23.80	156.90	-8.18	-22.81
	-8.19	-22.48	-8.19	-22.69	-8.20	-23.36	-8.21	-23.25	-8.19	-23.04	-8.19	-22.70	-22.27	83.17
54.43	-23.68	155.76	-34.44	92.08	-29.93	8.65	-27.20	0.88	-29.95	5.88	-37.86	91.33	-8.19	-24.22
	-34.40	91.84	-23.92	161.37	-34.42	96.86	-29.59	10.70	-27.23	0.82	-29.50	5.23	-8.19	-24.37
	-29.91	9.04	-34.38	97.23	-23.70	155.60	-33.29	90.03	-28.93	8.76	-27.06	1.93	-8.21	-24.98
	-27.21	1.02	-29.60	10.71	-33.28	89.94	-23.41	158.19	-34.63	79.40	-29.13	10.55	-8.20	-25.01
	-29.96	6.03	-27.24	0.78	-28.93	8.55	-34.60	79.78	-23.29	157.59	-33.56	97.86	-8.20	-24.66
	-37.88	91.55	-29.51	5.23	-27.06	1.80	-29.15	10.42	-33.64	97.90	-23.89	156.13	-8.19	-24.44
	-8.20	-24.11	-8.21	-24.34	-8.21	-25.04	-8.22	-24.96	-8.20	-24.70	-8.20	-24.33	-21.87	80.32
58.18	-23.75	155.25	-34.09	89.39	-29.75	8.75	-27.09	0.85	-29.79	5.86	-37.56	88.13	-8.21	-25.85
	-34.04	89.13	-24.02	161.23	-34.10	93.82	-29.41	10.87	-27.12	0.73	-29.35	5.24	-8.21	-26.02
	-29.72	9.21	-34.08	94.09	-23.79	155.06	-32.91	87.41	-28.78	8.81	-26.95	1.87	-8.22	-26.68
	-27.10	0.94	-29.42	10.94	-32.92	87.32	-23.50	157.75	-34.20	77.15	-28.93	10.77	-8.21	-26.68
	-29.79	5.99	-27.13	0.75	-28.78	8.73	-34.19	77.47	-23.38	157.15	-33.25	94.95	-8.21	-26.34
	-37.60	88.25	-29.36	5.30	-26.94	1.77	-28.98	10.55	-33.31	94.99	-23.97	155.38	-8.20	-26.11
	-8.22	-25.74	-8.22	-25.97	-8.22	-26.73	-8.23	-26.60	-8.22	-26.37	-8.22	-26.00	-21.48	77.70
61.92	-23.83	154.73	-33.76	86.93	-29.58	8.69	-26.98	0.67	-29.64	5.73	-37.30	84.92	-8.22	-27.49
	-33.70	86.64	-24.12	161.16	-33.79	91.07	-29.23	10.96	-27.02	0.58	-29.21	5.13	-8.22	-27.66
	-29.56	9.19	-33.77	91.39	-23.89	154.55	-32.55	85.04	-28.62	8.89	-26.83	1.78	-8.23	-28.36
	-26.99	0.85	-29.24	11.00	-32.55	84.92	-23.59	157.39	-33.80	74.97	-28.76	10.81	-8.23	-28.37
	-29.64	5.80	-27.02	0.62	-28.60	8.78	-33.79	75.32	-23.49	156.70	-32.95	92.32	-8.23	-28.01
	-37.31	85.15	-29.21	5.11	-26.83	1.64	-28.81	10.59	-33.03	92.26	-24.05	154.60	-8.21	-27.74
	-8.23	-27.38	-8.23	-27.63	-8.23	-28.42	-8.24	-28.30	-8.23	-28.06	-8.23	-27.63	-21.12	75.14
65.66	-23.93	154.21	-33.43	84.51	-29.41	8.63	-26.88	0.51	-29.49	5.53	-37.02	81.91	-8.23	-29.09
	-33.39	84.27	-24.22	161.12	-33.50	88.42	-29.05	10.90	-26.91	0.39	-29.06	4.94	-8.23	-29.30
	-29.38	9.02	-33.49	88.64	-23.99	154.05	-32.19	82.81	-28.46	8.88	-26.72	1.60	-8.24	-30.05
	-26.89	0.61	-29.06	10.95	-32.20	82.67	-23.70	157.05	-33.42	73.01	-28.59	10.74	-8.24	-30.04
	-29.49	5.70	-26.91	0.42	-28.46	8.69	-33.43	73.18	-23.58	156.24	-32.67	89.74	-8.24	-29.66
	-37.02	82.07	-29.06	4.91	-26.72	1.52	-28.63	10.60	-32.71	89.67	-24.13	153.87	-8.23	-29.38
	-8.24	-29.00	-8.24	-29.24	-8.24	-30.08	-8.25	-29.97	-8.24	-29.70	-8.24	-29.27	-20.78	72.73
69.41	-24.04	153.76	-33.13	82.12	-29.24	8.43	-26.77	0.21	-29.34	5.22	-36.79	79.03	-8.25	-30.73
	-33.05	82.02	-24.33	161.11	-33.22	85.85	-28.89	10.83	-26.81	0.13	-28.92	4.71	-8.24	-30.94
	-29.22	8.96	-33.20	86.08	-24.11	153.55	-31.88	80.62	-28.31	8.69	-26.62	1.38	-8.26	-31.73
	-26.78	0.34	-28.90	10.81	-31.88	80.51	-23.81	156.76	-33.08	71.00	-28.42	10.68	-8.25	-31.71
	-29.33	5.37	-26.82	0.08	-28.31	8.62	-33.08	71.21	-23.70	155.84	-32.38	87.28	-8.26	-31.34
	-36.78	79.21	-28.93	4.67	-26.61	1.27	-28.46	10.43	-32.44	87.25	-24.23	153.15	-8.24	-31.03
	-8.26	-30.64	-8.25	-30.90	-8.26	-31.78	-8.27	-31.67	-8.25	-31.36	-8.25	-30.93	-20.47	70.43
73.16	-24.14	153.32	-32.84	80.05	-29.07	8.16	-26.66	-0.13	-29.19	4.86	-36.53	76.16	-8.26	-32.35
	-32.77	79.72	-24.45	161.02	-32.94	83.32	-28.71	10.61	-26.70	-0.23	-28.78	4.35	-8.25	-32.58
	-29.06	8.52	-32.95	83.65	-24.24	153.14	-31.57	78.54	-28.15	8.53	-26.50	1.08	-8.27	-33.43
	-26.67	-0.01	-28.73	10.68	-31.57	78.43	-23.94	156.35	-32.73	69.05	-28.25	10.41	-8.26	-33.40
	-29.19	4.99	-26.71	-0.18	-28.15	8.40	-32.74	69.40	-23.82	155.50	-32.12	84.88	-8.26	-33.00
	-36.55	76.43	-28.78	4.38	-26.49	0.95	-28.30	10.24	-32.18	84.82	-24.31	152.48	-8.25	-32.67
	-8.27	-32.27	-8.26	-32.53	-8.27	-33.46	-8.28	-33.34	-8.26	-33.03	-8.27	-32.59	-20.17	68.22
76.90	-24.27	152.88	-32.56	77.79	-28.92	7.79	-26.56	-0.52	-29.04	4.39	-36.31	73.48	-8.27	-33.98
	-32.51	77.51	-24.60	161.14	-32.71	80.95	-28.55	10.28	-26.60	-0.61	-28.64	3.93	-8.27	-34.23
	-28.89	8.21	-32.69	81.27	-24.36	152.63	-31.28	76.55	-28.02	8.24	-26.39	0.74	-8.28	-35.10
	-26.57	-0.40	-28.57	10.29	-31.28	76.40	-24.08	156.07	-32.44	67.19	-28.09	10.10	-8.27	-35.10
	-29.05	4.53	-26.61	-0.55	-28.01	8.10	-32.42	67.52	-23.96	155.09	-31.87	82.56	-8.28	-34.66
	-36.32	73.67	-28.64	3.92	-26.38	0.64	-28.13	9.97	-31.93	82.58	-24.40	151.87	-8.26	-34.31
	-8.28	-33.90	-8.28	-34.17	-8.27	-35.14	-8.29	-35.00	-8.27	-34.67	-8.28	-34.23	-19.89	66.05
80.65	-24.40	152.32	-32.30	75.76	-28.76	7.36	-26.45	-0.95	-28.91	3.96	-36.09	70.87	-8.29	-35.60
	-32.25	75.63	-24.74	161.11	-32.46	78.65	-28.40	9.97	-26.50	-1.07	-28.51	3.45	-8.28	-35.86
	-28.74	7.77	-32.46	79.03	-24.51	152.22	-31.00	74.64	-27.87	7.88	-26.28	0.31	-8.29	-36.77
	-26.46	-0.83	-28.41	9.97	-30.99	74.50	-24.22	155.69	-32.13	65.36	-27.94	9.76	-8.28	-36.75
	-28.91	4.04	-26.51	-1.04	-27.86	7.77	-32.14	65.72	-24.10	154.73	-31.61	80.47	-8.29	-36.30
	-36.10	70.94	-28.52	3.46	-26.28	0.19	-27.97	9.62	-31.69	80.33	-24.50	151.15	-8.27	-35.94
	-8.29	-35.53	-8.29	-35.82	-8.29	-36.83	-8.30	-36.70	-8.28	-36.33	-8.29	-35.86	-19.63	63.92
84.39	-24.53	151.91	-32.06	73.82	-28.61	6.83	-26.35	-1.45	-28.77	3.32	-35.90	68.31	-8.30	-37.23
	-32.01	73.54	-24.88	161.16	-32.24	76.51	-28.25	9.54	-26.39	-1.57	-28.37	2.89	-8.29	-37.52
	-28.59	7.24	-32.24	76.81	-24.66	151.72	-30.75	72.83	-27.74	7.49	-26.18	-0.14	-8.30	-38.49
	-26.37	-1.33	-28.26	9.61	-30.74	72.70	-24.37	155.37	-31.85	63.69	-27.77	9.31	-8.29	-38.47
	-28.77	3.47	-26.40	-1.50	-27.73	7.38	-31.86	63.94	-24.25	154.37	-31.39	78.31	-8.30	-37.99
	-35.91	68.51	-28.38	2.93	-26.17	-0.25	-27.82	9.23	-31.46	78.25	-24.59	150.57	-8.28	-37.61
	-8.31	-37.15	-8.30	-37.43	-8.30	-38.53	-8.31	-38.34	-8.30	-38.01	-8.30	-37.49	-19.38	61.92
88.14	-24.66	151.43	-31.83	71.94	-28.48	6.22	-26.25	-2.01	-28.64	2.75	-35.74	65.83	-8.31	-38.85
	-31.79	71.63	-25.03	161.18	-32.04	74.32	-28.10	9.02	-26.30	-2.08	-28.25	2.29	-8.30	-39.16
	-28.45	6.62	-32.02	74.69	-24.81	151.16	-30.50	71.06	-27.61	6.99	-26.08	-0.67	-8.31	-40.17
	-26.26	-1.88	-28.11	9.11	-30.49	70.90	-24.52	155.07	-31.61	61.85	-27.63	8.81	-8.31	-40.14
	-28.64	2.84	-26.31	-2.04	-27.59	6.90	-31.61	62.21	-24.40	153.91	-31.19	76.28	-8.31	-39.64
	-35.71	66.02	-28.26	2.38	-26.07	-0.74	-27.68	8.75	-31.25	76.16	-24.67	150.04	-8.30	-39.21
	-8.32	-38.78	-8.31	-39.08	-8.31	-40.22	-8.32	-40.07	-8.31	-39.68	-8.31	-39.14	-19.14	59.91
91.88	-24.81	150.90	-31.63	70.03	-28.34	5.64	-26.16	-2.62	-28.51	2.04	-35.56	63.34	-8.32	-40.50
	-31.57	69.83	-25.19	161.21	-31.84	72.32	-27.96	8.52	-26.21	-2.65	-28.13	1.66	-8.32	-40.78
	-28.32	6.03	-31.82	72.70	-24.97	150.62	-30.27	69.31	-27.48	6.52	-25.98	-1.22	-8.33	-41.83
	-26.17	-2.49	-27.97	8.58	-30.27	69.25	-24.68	154.65	-31.38	60.28	-27.49	8.34	-8.32	-41.81
	-28.52	2.19	-26.21	-2.67	-27.47	6.40	-31.37	60.66	-24.56	153.53	-30.99	74.30	-8.32	-41.31
	-35.56	63.49	-28.14	1.70	-25.97	-1.31	-27.54	8.20	-31.05	74.25	-24.76	149.41	-8.31	-40.86
	-8.33	-40.43	-8.32	-40.76	-8.32	-41.87	-8.33	-41.74	-8.32	-41.31	-8.32	-40.79	-18.93	57.95
95.63	-24.94	150.39	-31.42	68.31	-28.22	4.93	-26.06	-3.27	-28.40	1.34	-35.40	60.98	-8.34	-42.14
	-31.37	68.02	-25.34	161.30	-31.65	70.40	-27.82	7.91	-26.12	-3.31	-28.02	0.94	-8.33	-42.44
	-28.19	5.32	-31.63	70.71	-25.12	150.00	-30.04	67.65	-27.35	5.93	-25.88	-1.81	-8.33	-43.54
	-26.07	-3.15	-27.84	7.97	-30.05	67.53	-24.84	154.34	-31.16	58.70	-27.36	7.67	-8.33	-43.51
	-28.40	1.44	-26.12	-3.30	-27.34	5.83	-31.15	59.03	-24.73	153.01	-30.81	72.38	-8.33	-42.97
	-35.40	61.11	-28.02	0.99	-25.88	-1.93	-27.40	7.64	-30.86	72.36	-24.85	148.91	-8.32	-42.52
	-8.35	-42.06	-8.33	-42.37	-8.33	-43.58	-8.34	-43.42	-8.33	-42.99	-8.33	-42.44	-18.72	56.01
99.37	-25.10	149.90	-31.23	66.61	-28.09	4.24	-25.98	-3.96	-28.28	0.53	-35.25	58.69	-8.35	-43.76
	-31.18	66.26	-25.51	161.35	-31.47	68.43	-27.70	7.24	-26.02	-3.99	-27.90	0.18	-8.33	-44.08
	-28.06	4.60	-31.46	68.81	-25.29	149.48	-29.85	66.06	-27.24	5.34	-25.80	-2.48	-8.35	-45.23
	-25.98	-3.82	-27.71	7.29	-29.85	65.95	-25.01	153.96	-30.94	57.10	-27.23	7.09	-8.33	-45.19
	-28.29	0.68	-26.04	-3.95	-27.23	5.24	-30.93	57.43	-24.90	152.64	-30.61	70.53	-8.34	-44.63
	-35.25	58.79	-27.90	0.21	-25.78	-2.57	-27.28	7.00	-30.66	70.60	-24.94	148.51	-8.33	-44.17
	-8.36	-43.68	-8.34	-44.05	-8.34	-45.28	-8.35	-45.14	-8.34	-44.67	-8.35	-44.07	-18.53	54.11
103.12	-25.24	149.40	-31.05	64.91	-27.98	3.49	-25.89	-4.68	-28.18	-0.33	-35.13	56.29	-8.36	-45.41
	-31.01	64.59	-25.67	161.41	-31.31	66.66	-27.59	6.58	-25.95	-4.73	-27.79	-0.61	-8.35	-45.76
	-27.94	3.80	-31.30	66.92	-25.46	148.79	-29.65	64.50	-27.12	4.67	-25.70	-3.16	-8.36	-46.93
	-25.90	-4.55	-27.59	6.57	-29.65	64.39	-25.18	153.54	-30.73	55.63	-27.11	6.34	-8.35	-46.89
	-28.17	-0.17	-25.95	-4.70	-27.12	4.58	-30.74	55.92	-25.07	152.10	-30.45	68.83	-8.36	-46.32
	-35.12	56.56	-27.80	-0.60	-25.70	-3.26	-27.16	6.32	-30.50	68.85	-25.03	148.12	-8.34	-45.81
	-8.37	-45.34	-8.35	-45.71	-8.35	-46.96	-8.36	-46.83	-8.35	-46.33	-8.36	-45.73	-18.35	52.24
106.86	-25.40	148.86	-30.90	63.35	-27.87	2.69	-25.81	-5.45	-28.07	-1.17	-35.01	54.15	-8.38	-47.05
	-30.86	62.96	-25.83	161.44	-31.16	64.81	-27.46	5.81	-25.87	-5.48	-27.70	-1.47	-8.36	-47.40
