! Mini-Circuits														
! S7P DATA File Format														
! Type: 6 Way 0 degree Power Splitter														
! Model: AD6PS-1+      														
! PINOUT: SUMPORT=PORT7 , OUT1 PORT=PORT1 , OUT2 PORT=PORT2 , OUT3 PORT=PORT3 , OUT4 PORT=PORT4 , OUT5 PORT=PORT5 , OUT6 PORT=PORT6														
! TEST CONDITIONS: INPUT POWER = 0 dBm @ Temperature = + 25 deg C														
! 401 Frequency points														
!														
! All S Parameters are in dB deg format														
!														
[Version] 2.0
# MHz S DB R 50														
[Number of Ports] 7
[Number of Frequencies] 401
[Reference] 50
[Network Data] 
!														
! FREQ  MAG(S11)PHS(S11)MAG(S12)PHS(S12)MAG(S13)PHS(S13)MAG(S14)PHS(S14)MAG(S15)PHS(S15)MAG(S16)PHS(S16)MAG(S17)PHS(S17)  
!	MAG(S21)PHS(S21)MAG(S22)PHS(S22)MAG(S23)PHS(S23)MAG(S24)PHS(S24)MAG(S25)PHS(S25)MAG(S26)PHS(S26)MAG(S27)PHS(S27)  
!	MAG(S31)PHS(S31)MAG(S32)PHS(S32)MAG(S33)PHS(S33)MAG(S34)PHS(S34)MAG(S35)PHS(S35)MAG(S36)PHS(S36)MAG(S37)PHS(S37)  
!	MAG(S41)PHS(S41)MAG(S42)PHS(S42)MAG(S43)PHS(S43)MAG(S44)PHS(S44)MAG(S45)PHS(S45)MAG(S46)PHS(S46)MAG(S47)PHS(S47)  
!	MAG(S51)PHS(S51)MAG(S52)PHS(S52)MAG(S53)PHS(S53)MAG(S54)PHS(S54)MAG(S55)PHS(S55)MAG(S56)PHS(S56)MAG(S57)PHS(S57)  
!	MAG(S61)PHS(S61)MAG(S62)PHS(S62)MAG(S63)PHS(S63)MAG(S64)PHS(S64)MAG(S65)PHS(S65)MAG(S66)PHS(S66)MAG(S67)PHS(S67)  
!	MAG(S71)PHS(S71)MAG(S72)PHS(S72)MAG(S73)PHS(S73)MAG(S74)PHS(S74)MAG(S75)PHS(S75)MAG(S76)PHS(S76)MAG(S77)PHS(S77)  
!														
2.00	-20.07	142.14	-38.91	136.85	-29.14	-28.34	-26.37	-29.16	-30.16	-29.08	-36.95	142.26	-7.99	-0.08
	-38.95	136.68	-19.99	142.75	-37.33	136.81	-30.18	-27.56	-26.38	-29.14	-29.20	-29.51	-7.99	-0.01
	-29.15	-28.11	-37.31	136.86	-20.03	142.31	-35.58	141.42	-28.91	-30.06	-26.11	-29.04	-8.01	-0.02
	-26.38	-28.95	-30.18	-27.60	-35.57	141.33	-20.03	141.52	-43.34	136.65	-29.07	-29.34	-8.00	-0.12
	-30.17	-28.95	-26.37	-29.20	-28.89	-30.07	-43.30	136.91	-19.95	141.68	-35.96	136.86	-7.99	-0.14
	-36.95	142.51	-29.20	-29.65	-26.09	-29.08	-29.09	-29.52	-35.92	137.12	-20.25	141.75	-7.99	-0.13
	-8.00	0.09	-8.00	-0.01	-8.00	-0.03	-8.00	-0.10	-7.98	-0.14	-7.99	-0.07	-27.67	146.59
5.75	-23.53	153.99	-42.02	136.86	-31.89	-15.82	-29.08	-16.15	-32.59	-13.29	-40.66	138.05	-7.98	-2.39
	-42.06	135.99	-23.43	154.48	-41.20	137.26	-32.47	-12.11	-29.07	-15.80	-31.99	-15.19	-7.98	-2.37
	-31.90	-15.56	-41.14	137.90	-23.44	154.27	-38.99	135.79	-31.66	-14.23	-28.88	-16.17	-7.99	-2.42
	-29.09	-15.97	-32.48	-12.21	-39.00	135.79	-23.53	154.67	-45.71	124.28	-31.82	-14.50	-7.98	-2.45
	-32.60	-13.10	-29.07	-15.82	-31.66	-14.36	-45.57	125.27	-23.44	154.82	-39.82	136.16	-7.98	-2.44
	-40.67	138.29	-32.00	-15.23	-28.88	-16.29	-31.86	-14.72	-39.85	136.31	-23.75	154.43	-7.98	-2.43
	-7.99	-2.29	-7.99	-2.37	-7.99	-2.47	-7.99	-2.46	-7.98	-2.47	-7.98	-2.38	-29.22	144.50
9.49	-24.43	159.02	-42.24	130.54	-32.51	-8.61	-29.61	-9.54	-32.93	-6.18	-41.74	133.97	-7.98	-4.26
	-42.29	130.07	-24.39	159.82	-41.60	133.95	-32.82	-4.87	-29.58	-9.29	-32.46	-7.79	-7.98	-4.25
	-32.52	-8.33	-41.52	134.53	-24.33	159.19	-39.76	129.54	-32.07	-6.23	-29.44	-9.49	-8.00	-4.30
	-29.62	-9.47	-32.82	-4.82	-39.77	129.42	-24.38	160.34	-45.00	114.12	-32.32	-6.50	-8.00	-4.36
	-32.93	-6.07	-29.59	-9.29	-32.07	-6.35	-44.92	115.04	-24.29	160.37	-40.50	132.52	-7.99	-4.30
	-41.72	134.15	-32.48	-7.83	-29.44	-9.61	-32.35	-6.68	-40.55	132.78	-24.62	159.84	-7.99	-4.26
	-7.99	-4.15	-8.00	-4.22	-8.00	-4.37	-8.00	-4.33	-7.99	-4.33	-7.99	-4.21	-29.15	136.36
13.24	-24.86	161.17	-41.82	123.88	-32.69	-3.82	-29.76	-5.75	-32.95	-1.93	-42.04	128.96	-8.00	-6.02
	-41.85	123.43	-24.83	162.62	-41.34	128.42	-32.84	-0.25	-29.71	-5.47	-32.57	-3.34	-8.00	-6.02
	-32.71	-3.58	-41.32	128.70	-24.74	161.39	-39.70	123.38	-32.11	-1.47	-29.59	-5.52	-8.01	-6.11
	-29.77	-5.63	-32.86	-0.28	-39.71	123.19	-24.75	163.02	-43.84	106.09	-32.39	-1.56	-8.01	-6.16
	-32.96	-1.84	-29.72	-5.46	-32.11	-1.57	-43.82	106.43	-24.66	162.84	-40.40	127.42	-8.00	-6.08
	-42.03	128.91	-32.57	-3.34	-29.59	-5.64	-32.41	-1.67	-40.42	127.67	-25.01	162.20	-8.00	-6.03
	-8.01	-5.90	-8.01	-6.00	-8.01	-6.16	-8.02	-6.17	-8.00	-6.11	-8.00	-5.97	-28.69	127.68
16.98	-25.11	162.14	-41.19	117.49	-32.68	-0.26	-29.78	-3.13	-32.87	0.96	-41.99	123.46	-8.00	-7.71
	-41.19	117.15	-25.10	164.05	-40.85	122.50	-32.75	3.06	-29.72	-2.90	-32.51	-0.16	-8.01	-7.75
	-32.70	0.00	-40.81	122.61	-25.00	162.33	-39.34	117.47	-32.02	1.89	-29.61	-2.79	-8.02	-7.87
	-29.78	-3.02	-32.76	3.05	-39.34	117.30	-24.96	164.15	-42.65	99.72	-32.31	1.92	-8.01	-7.90
	-32.88	1.05	-29.73	-2.89	-32.01	1.66	-42.62	100.12	-24.88	163.99	-40.01	121.84	-8.01	-7.77
	-41.99	123.54	-32.53	-0.10	-29.61	-2.91	-32.33	1.90	-40.01	122.04	-25.24	163.29	-8.01	-7.72
	-8.01	-7.60	-8.02	-7.67	-8.02	-7.94	-8.02	-7.86	-8.01	-7.84	-8.01	-7.70	-28.04	120.03
20.00	-25.26	162.33	-40.61	112.55	-32.61	2.02	-29.73	-1.59	-32.76	2.67	-41.80	119.21	-8.01	-9.05
	-40.61	112.53	-25.26	164.69	-40.37	117.57	-32.63	5.10	-29.68	-1.40	-32.43	1.75	-8.02	-9.12
	-32.63	2.24	-40.34	117.94	-25.15	162.54	-38.90	113.31	-31.91	3.80	-29.58	-1.16	-8.03	-9.26
	-29.75	-1.45	-32.63	5.19	-38.89	113.00	-25.09	164.51	-41.73	95.61	-32.20	4.19	-8.03	-9.31
	-32.78	2.81	-29.68	-1.36	-31.91	3.74	-41.71	96.08	-25.00	164.32	-39.59	117.55	-8.02	-9.17
	-41.81	119.22	-32.44	1.79	-29.58	-1.26	-32.22	4.10	-39.63	117.60	-25.38	163.54	-8.02	-9.11
	-8.02	-8.93	-8.03	-9.05	-8.03	-9.33	-8.03	-9.28	-8.02	-9.21	-8.02	-9.05	-27.47	114.55
24.47	-25.42	162.15	-39.74	106.39	-32.44	4.74	-29.65	0.30	-32.59	4.78	-41.43	113.20	-8.03	-11.05
	-39.74	106.30	-25.44	165.24	-39.64	111.25	-32.42	7.74	-29.58	0.43	-32.27	4.09	-8.03	-11.11
	-32.46	4.98	-39.62	111.66	-25.32	162.44	-38.20	107.35	-31.72	6.33	-29.49	0.80	-8.04	-11.34
	-29.65	0.44	-32.43	7.65	-38.21	107.46	-25.25	164.58	-40.49	90.68	-32.01	6.80	-8.04	-11.34
	-32.59	4.94	-29.60	0.44	-31.72	6.22	-40.45	91.21	-25.15	164.29	-38.93	111.66	-8.03	-11.22
	-41.48	113.14	-32.28	4.12	-29.48	0.70	-32.04	6.85	-38.95	111.54	-25.53	163.40	-8.03	-11.10
	-8.04	-10.93	-8.04	-11.05	-8.04	-11.37	-8.04	-11.32	-8.03	-11.23	-8.03	-11.06	-26.62	107.42
28.22	-25.53	161.81	-39.02	101.94	-32.26	6.56	-29.55	1.43	-32.41	6.08	-41.07	108.36	-8.04	-12.72
	-38.99	101.74	-25.57	165.36	-39.01	106.47	-32.22	9.41	-29.48	1.50	-32.11	5.48	-8.04	-12.78
	-32.28	6.80	-39.00	106.73	-25.45	162.08	-37.58	103.22	-31.55	7.91	-29.38	2.00	-8.05	-13.04
	-29.57	1.56	-32.24	9.36	-37.57	103.10	-25.37	164.29	-39.57	87.23	-31.82	8.62	-8.05	-13.06
	-32.44	6.24	-29.50	1.51	-31.54	7.83	-39.54	87.81	-25.27	164.01	-38.31	107.14	-8.04	-12.89
	-41.08	108.51	-32.11	5.54	-29.38	1.92	-31.83	8.49	-38.37	107.00	-25.65	163.10	-8.04	-12.78
	-8.05	-12.63	-8.06	-12.76	-8.06	-13.09	-8.05	-13.03	-8.04	-12.91	-8.05	-12.71	-25.93	102.29
31.96	-25.63	161.32	-38.35	97.95	-32.09	7.93	-29.44	2.27	-32.23	7.16	-40.66	103.72	-8.04	-14.36
	-38.30	97.63	-25.70	165.32	-38.39	102.31	-32.01	10.74	-29.38	2.39	-31.94	6.60	-8.05	-14.46
	-32.09	8.33	-38.40	102.57	-25.56	161.55	-36.96	99.36	-31.35	9.24	-29.28	3.08	-8.07	-14.74
	-29.45	2.44	-32.00	10.86	-36.96	99.32	-25.48	163.91	-38.72	84.54	-31.61	10.08	-8.06	-14.78
	-32.25	7.26	-29.39	2.40	-31.35	9.17	-38.69	84.72	-25.37	163.63	-37.71	102.94	-8.05	-14.57
	-40.71	103.77	-31.95	6.71	-29.27	2.93	-31.63	9.86	-37.76	103.11	-25.75	162.71	-8.05	-14.44
	-8.06	-14.25	-8.07	-14.38	-8.06	-14.78	-8.06	-14.73	-8.05	-14.60	-8.06	-14.39	-25.25	97.76
35.71	-25.73	160.59	-37.70	94.30	-31.89	9.10	-29.32	3.06	-32.05	8.02	-40.22	99.46	-8.06	-16.01
	-37.64	94.37	-25.81	165.13	-37.82	98.24	-31.80	11.89	-29.26	3.06	-31.76	7.63	-8.06	-16.11
	-31.89	9.53	-37.77	98.71	-25.66	160.96	-36.38	96.06	-31.18	10.37	-29.15	3.83	-8.08	-16.48
	-29.33	3.18	-31.79	11.99	-36.36	95.99	-25.58	163.38	-37.95	81.67	-31.40	11.21	-8.07	-16.46
	-32.07	8.13	-29.27	3.13	-31.17	10.22	-37.95	82.13	-25.48	163.08	-37.14	99.35	-8.07	-16.26
	-40.23	99.59	-31.78	7.61	-29.14	3.74	-31.42	11.10	-37.20	99.23	-25.85	162.06	-8.06	-16.08
	-8.07	-15.90	-8.07	-16.06	-8.07	-16.49	-8.08	-16.43	-8.06	-16.26	-8.06	-16.06	-24.61	93.63
39.45	-25.83	159.95	-37.08	91.49	-31.68	9.97	-29.20	3.57	-31.87	8.69	-39.85	95.49	-8.07	-17.66
	-37.01	91.20	-25.92	164.93	-37.27	95.00	-31.57	12.78	-29.13	3.61	-31.56	8.32	-8.07	-17.77
	-31.69	10.56	-37.23	95.06	-25.77	160.20	-35.82	92.89	-30.96	11.23	-29.01	4.45	-8.09	-18.13
	-29.21	3.72	-31.58	12.82	-35.82	92.92	-25.69	162.80	-37.28	79.39	-31.18	12.37	-8.08	-18.14
	-31.88	8.74	-29.15	3.63	-30.97	11.10	-37.25	79.56	-25.59	162.33	-36.57	96.01	-8.07	-17.94
	-39.84	95.80	-31.57	8.36	-29.02	4.35	-31.21	12.13	-36.65	96.13	-25.96	161.46	-8.07	-17.74
	-8.09	-17.57	-8.09	-17.71	-8.09	-18.17	-8.08	-18.11	-8.08	-17.94	-8.08	-17.71	-24.03	89.98
43.20	-25.92	159.15	-36.51	88.10	-31.49	10.85	-29.07	3.96	-31.69	9.17	-39.44	92.04	-8.08	-19.30
	-36.46	88.24	-26.03	164.70	-36.73	91.62	-31.35	13.60	-29.01	4.04	-31.38	8.91	-8.08	-19.41
	-31.49	11.23	-36.71	91.91	-25.87	159.44	-35.27	90.10	-30.76	11.83	-28.89	4.89	-8.10	-19.84
	-29.08	4.15	-31.36	13.69	-35.27	89.97	-25.80	162.16	-36.63	77.32	-30.97	13.09	-8.09	-19.84
	-31.68	9.26	-29.03	4.06	-30.76	11.86	-36.59	77.43	-25.69	161.74	-36.08	92.99	-8.09	-19.61
	-39.44	92.07	-31.40	8.88	-28.88	4.79	-30.99	12.85	-36.14	92.98	-26.06	160.72	-8.08	-19.41
	-8.09	-19.19	-8.10	-19.35	-8.10	-19.90	-8.10	-19.81	-8.09	-19.62	-8.09	-19.34	-23.48	86.63
46.94	-26.02	158.35	-35.99	85.69	-31.27	11.33	-28.93	4.32	-31.49	9.37	-39.06	88.33	-8.09	-20.92
	-35.92	85.47	-26.15	164.44	-36.25	88.61	-31.12	14.17	-28.88	4.29	-31.19	9.33	-8.09	-21.08
	-31.28	11.78	-36.20	89.13	-25.97	158.61	-34.78	87.49	-30.56	12.46	-28.75	5.31	-8.11	-21.51
	-28.95	4.42	-31.15	14.15	-34.78	87.52	-25.92	161.55	-36.05	75.12	-30.75	13.70	-8.10	-21.54
	-31.51	9.53	-28.89	4.42	-30.57	12.42	-36.01	75.60	-25.79	160.95	-35.58	89.94	-8.09	-21.26
	-39.03	88.60	-31.21	9.40	-28.75	5.21	-30.78	13.52	-35.65	90.11	-26.16	160.03	-8.09	-21.04
	-8.11	-20.83	-8.11	-20.98	-8.11	-21.55	-8.10	-21.49	-8.10	-21.27	-8.10	-21.00	-22.97	83.46
50.69	-26.12	157.61	-35.49	83.24	-31.08	11.72	-28.81	4.52	-31.31	9.60	-38.69	85.19	-8.10	-22.56
	-35.43	83.11	-26.27	164.23	-35.77	85.89	-30.91	14.56	-28.75	4.49	-31.00	9.58	-8.10	-22.73
	-31.06	12.28	-35.75	86.10	-26.08	157.78	-34.30	85.01	-30.36	12.95	-28.60	5.55	-8.12	-23.19
	-28.82	4.62	-30.93	14.59	-34.29	84.95	-26.03	160.93	-35.49	73.21	-30.54	14.17	-8.11	-23.20
	-31.31	9.78	-28.75	4.55	-30.37	12.79	-35.46	73.48	-25.91	160.24	-35.11	87.38	-8.10	-22.92
	-38.68	85.29	-31.01	9.65	-28.61	5.46	-30.57	13.95	-35.19	87.44	-26.26	159.33	-8.10	-22.66
	-8.12	-22.46	-8.12	-22.65	-8.12	-23.23	-8.11	-23.19	-8.10	-22.93	-8.11	-22.61	-22.48	80.47
54.43	-26.22	156.81	-35.03	80.94	-30.87	12.02	-28.67	4.61	-31.13	9.79	-38.30	82.23	-8.12	-24.19
	-34.97	80.85	-26.37	163.96	-35.34	83.35	-30.69	14.86	-28.62	4.58	-30.82	9.67	-8.11	-24.36
	-30.86	12.48	-35.30	83.70	-26.18	157.04	-33.86	82.77	-30.17	13.22	-28.46	5.72	-8.12	-24.88
	-28.68	4.74	-30.71	14.94	-33.84	82.72	-26.14	160.28	-35.00	71.32	-30.33	14.51	-8.12	-24.87
	-31.14	9.92	-28.62	4.62	-30.18	13.09	-34.97	71.67	-26.02	159.61	-34.67	84.97	-8.11	-24.58
	-38.35	82.19	-30.84	9.80	-28.47	5.67	-30.36	14.35	-34.76	84.99	-26.37	158.70	-8.12	-24.31
	-8.13	-24.08	-8.13	-24.31	-8.13	-24.91	-8.12	-24.86	-8.12	-24.59	-8.12	-24.25	-22.04	77.71
58.18	-26.33	156.12	-34.58	78.73	-30.67	12.15	-28.54	4.59	-30.94	9.77	-37.96	79.15	-8.13	-25.83
	-34.52	78.55	-26.50	163.72	-34.91	80.82	-30.48	15.03	-28.48	4.56	-30.64	9.73	-8.13	-26.01
	-30.64	12.62	-34.88	81.20	-26.30	156.31	-33.42	80.65	-29.98	13.41	-28.33	5.80	-8.14	-26.57
	-28.55	4.79	-30.51	15.12	-33.42	80.48	-26.27	159.66	-34.54	69.66	-30.12	14.78	-8.13	-26.56
	-30.94	9.91	-28.50	4.65	-29.98	13.33	-34.52	69.99	-26.15	158.95	-34.27	82.52	-8.13	-26.25
	-38.01	79.22	-30.65	9.78	-28.33	5.63	-30.16	14.53	-34.33	82.63	-26.47	158.06	-8.12	-25.97
	-8.14	-25.71	-8.14	-25.92	-8.14	-26.62	-8.13	-26.52	-8.13	-26.29	-8.13	-25.90	-21.62	75.13
61.92	-26.43	155.33	-34.19	76.83	-30.47	12.18	-28.41	4.53	-30.76	9.64	-37.65	76.36	-8.14	-27.49
	-34.12	76.47	-26.62	163.56	-34.53	78.60	-30.29	15.03	-28.35	4.51	-30.46	9.68	-8.14	-27.64
	-30.45	12.68	-34.53	78.81	-26.42	155.55	-33.03	78.56	-29.78	13.51	-28.19	5.71	-8.15	-28.26
	-28.42	4.66	-30.30	15.14	-33.02	78.46	-26.39	159.13	-34.09	67.87	-29.92	14.85	-8.14	-28.25
	-30.77	9.79	-28.37	4.58	-29.79	13.41	-34.09	68.34	-26.28	158.34	-33.86	80.40	-8.13	-27.92
	-37.65	76.51	-30.46	9.75	-28.19	5.66	-29.95	14.70	-33.96	80.34	-26.58	157.43	-8.13	-27.61
	-8.15	-27.34	-8.15	-27.57	-8.14	-28.31	-8.15	-28.22	-8.13	-27.92	-8.14	-27.56	-21.23	72.61
65.66	-26.55	154.57	-33.81	74.63	-30.29	12.11	-28.27	4.43	-30.58	9.48	-37.35	73.66	-8.15	-29.08
	-33.75	74.56	-26.74	163.40	-34.17	76.36	-30.08	15.02	-28.22	4.33	-30.28	9.53	-8.15	-29.30
	-30.26	12.60	-34.16	76.67	-26.54	154.83	-32.66	76.57	-29.60	13.47	-28.05	5.67	-8.16	-29.94
	-28.28	4.55	-30.09	15.17	-32.65	76.56	-26.51	158.57	-33.70	66.35	-29.72	14.85	-8.15	-29.94
	-30.59	9.55	-28.23	4.41	-29.60	13.37	-33.69	66.45	-26.40	157.71	-33.52	78.32	-8.14	-29.56
	-37.35	73.76	-30.29	9.54	-28.06	5.54	-29.76	14.64	-33.59	78.32	-26.69	156.79	-8.15	-29.22
	-8.16	-29.00	-8.16	-29.20	-8.16	-29.97	-8.15	-29.89	-8.15	-29.58	-8.15	-29.20	-20.87	70.22
69.41	-26.68	153.88	-33.44	72.77	-30.10	11.98	-28.14	4.14	-30.41	9.12	-37.05	71.06	-8.16	-30.73
	-33.38	72.55	-26.86	163.37	-33.82	74.29	-29.89	14.90	-28.10	4.14	-30.11	9.29	-8.16	-30.93
	-30.08	12.48	-33.82	74.50	-26.68	154.13	-32.30	74.72	-29.42	13.37	-27.93	5.48	-8.17	-31.62
	-28.15	4.30	-29.90	15.01	-32.29	74.63	-26.64	158.13	-33.31	64.73	-29.53	14.83	-8.16	-31.59
	-30.43	9.31	-28.11	4.20	-29.42	13.28	-33.31	64.89	-26.53	157.10	-33.15	76.21	-8.16	-31.22
	-37.06	71.20	-30.13	9.31	-27.92	5.39	-29.56	14.63	-33.24	76.26	-26.83	156.24	-8.16	-30.88
	-8.18	-30.62	-8.17	-30.86	-8.17	-31.65	-8.17	-31.57	-8.16	-31.26	-8.16	-30.82	-20.53	67.92
73.16	-26.79	153.23	-33.12	71.01	-29.90	11.74	-28.01	3.86	-30.24	8.82	-36.79	68.60	-8.18	-32.37
	-33.05	70.70	-27.00	163.14	-33.48	72.13	-29.70	14.66	-27.96	3.85	-29.94	8.93	-8.17	-32.58
	-29.89	12.11	-33.50	72.47	-26.79	153.52	-31.96	72.97	-29.25	13.16	-27.79	5.19	-8.18	-33.31
	-28.03	3.98	-29.72	14.77	-31.96	72.83	-26.78	157.57	-32.95	62.99	-29.33	14.55	-8.17	-33.27
	-30.27	8.93	-27.99	3.98	-29.24	13.09	-32.95	63.38	-26.66	156.60	-32.84	74.21	-8.17	-32.91
	-36.79	68.60	-29.96	9.00	-27.79	5.15	-29.38	14.45	-32.89	74.25	-26.94	155.72	-8.17	-32.51
	-8.19	-32.26	-8.19	-32.51	-8.18	-33.36	-8.18	-33.27	-8.17	-32.90	-8.17	-32.48	-20.21	65.70
76.90	-26.93	152.61	-32.80	69.07	-29.74	11.35	-27.89	3.50	-30.09	8.31	-36.51	66.06	-8.19	-34.01
	-32.73	68.87	-27.14	163.25	-33.20	70.17	-29.52	14.40	-27.84	3.48	-29.79	8.52	-8.18	-34.23
	-29.70	11.80	-33.19	70.52	-26.93	152.86	-31.66	71.17	-29.07	12.89	-27.66	4.89	-8.19	-34.99
	-27.90	3.64	-29.53	14.46	-31.65	71.06	-26.93	157.23	-32.64	61.51	-29.15	14.32	-8.18	-34.97
	-30.09	8.47	-27.86	3.58	-29.07	12.87	-32.62	61.72	-26.80	156.04	-32.53	72.23	-8.18	-34.55
	-36.54	66.19	-29.79	8.62	-27.66	4.81	-29.19	14.19	-32.61	72.36	-27.06	155.24	-8.18	-34.16
	-8.20	-33.89	-8.20	-34.17	-8.19	-35.03	-8.18	-34.93	-8.18	-34.56	-8.18	-34.09	-19.91	63.50
80.65	-27.07	151.85	-32.50	67.41	-29.56	10.95	-27.77	3.12	-29.93	7.84	-36.30	63.67	-8.20	-35.61
	-32.44	67.21	-27.28	163.20	-32.90	68.20	-29.34	14.07	-27.73	3.08	-29.62	8.04	-8.19	-35.86
	-29.54	11.39	-32.91	68.59	-27.05	152.31	-31.35	69.46	-28.91	12.59	-27.53	4.54	-8.20	-36.66
	-27.78	3.24	-29.36	14.11	-31.36	69.40	-27.07	156.75	-32.32	59.88	-28.97	14.03	-8.19	-36.65
	-29.94	7.94	-27.74	3.11	-28.91	12.52	-32.31	60.14	-26.93	155.68	-32.24	70.61	-8.19	-36.21
	-36.30	63.78	-29.65	8.08	-27.53	4.44	-29.01	13.89	-32.31	70.43	-27.20	154.73	-8.19	-35.77
	-8.21	-35.52	-8.21	-35.80	-8.20	-36.71	-8.20	-36.62	-8.18	-36.23	-8.19	-35.75	-19.63	61.35
84.39	-27.20	151.30	-32.22	65.73	-29.39	10.48	-27.65	2.63	-29.77	7.24	-36.07	61.35	-8.21	-37.25
	-32.16	65.47	-27.42	163.24	-32.64	66.34	-29.18	13.59	-27.60	2.62	-29.47	7.50	-8.20	-37.53
	-29.37	10.90	-32.65	66.67	-27.20	151.75	-31.09	67.90	-28.75	12.16	-27.41	4.09	-8.21	-38.36
	-27.66	2.77	-29.19	13.69	-31.09	67.78	-27.20	156.38	-32.03	58.45	-28.79	13.58	-8.20	-38.35
	-29.79	7.37	-27.61	2.69	-28.75	12.10	-32.03	58.65	-27.08	155.21	-31.97	68.64	-8.20	-37.88
	-36.09	61.52	-29.49	7.60	-27.41	4.02	-28.84	13.47	-32.03	68.67	-27.32	154.30	-8.20	-37.44
	-8.23	-37.14	-8.21	-37.42	-8.21	-38.40	-8.20	-38.27	-8.19	-37.89	-8.20	-37.38	-19.37	59.33
88.14	-27.31	150.73	-31.98	64.01	-29.24	9.88	-27.53	2.12	-29.63	6.63	-35.85	59.10	-8.22	-38.88
	-31.91	63.79	-27.55	163.40	-32.40	64.44	-29.02	13.10	-27.49	2.11	-29.34	6.89	-8.21	-39.16
	-29.21	10.31	-32.38	64.89	-27.33	151.17	-30.82	66.28	-28.60	11.77	-27.29	3.62	-8.22	-40.04
	-27.54	2.25	-29.03	13.13	-30.82	66.20	-27.35	156.11	-31.77	56.89	-28.62	13.10	-8.21	-40.01
	-29.65	6.73	-27.50	2.15	-28.60	11.68	-31.75	57.20	-27.22	154.80	-31.72	66.89	-8.21	-39.55
	-35.88	59.18	-29.34	6.94	-27.29	3.51	-28.68	13.01	-31.78	66.95	-27.43	153.88	-8.21	-39.06
	-8.24	-38.79	-8.23	-39.09	-8.22	-40.10	-8.21	-39.98	-8.20	-39.57	-8.22	-39.04	-19.12	57.34
91.88	-27.45	150.08	-31.71	62.43	-29.09	9.29	-27.42	1.52	-29.50	5.92	-35.68	56.82	-8.24	-40.51
	-31.66	62.14	-27.69	163.53	-32.16	62.75	-28.86	12.58	-27.38	1.55	-29.19	6.24	-8.22	-40.82
	-29.07	9.72	-32.16	63.20	-27.48	150.65	-30.59	64.81	-28.45	11.25	-27.18	3.10	-8.23	-41.72
	-27.43	1.64	-28.88	12.65	-30.58	64.66	-27.50	155.84	-31.51	55.46	-28.47	12.55	-8.22	-41.70
	-29.51	6.02	-27.39	1.58	-28.45	11.14	-31.50	55.80	-27.37	154.44	-31.47	65.30	-8.22	-41.21
	-35.68	56.87	-29.20	6.30	-27.18	3.01	-28.52	12.49	-31.55	65.27	-27.57	153.49	-8.22	-40.69
	-8.25	-40.43	-8.24	-40.74	-8.23	-41.75	-8.22	-41.66	-8.22	-41.20	-8.22	-40.70	-18.89	55.35
95.63	-27.57	149.54	-31.50	60.87	-28.94	8.58	-27.31	0.90	-29.36	5.14	-35.50	54.63	-8.24	-42.16
	-31.44	60.58	-27.83	163.81	-31.96	61.08	-28.72	11.96	-27.28	0.90	-29.06	5.52	-8.23	-42.45
	-28.92	9.02	-31.95	61.42	-27.61	150.07	-30.35	63.30	-28.31	10.69	-27.06	2.52	-8.23	-43.43
	-27.32	0.99	-28.73	12.06	-30.34	63.18	-27.66	155.65	-31.28	54.03	-28.32	11.94	-8.23	-43.39
	-29.37	5.34	-27.28	0.97	-28.31	10.57	-31.27	54.37	-27.51	154.05	-31.26	63.59	-8.22	-42.86
	-35.50	54.83	-29.06	5.59	-27.06	2.42	-28.37	11.95	-31.33	63.65	-27.69	153.14	-8.23	-42.36
	-8.26	-42.09	-8.25	-42.38	-8.23	-43.45	-8.23	-43.35	-8.22	-42.89	-8.23	-42.35	-18.68	53.41
99.37	-27.70	149.13	-31.29	59.37	-28.80	7.93	-27.20	0.24	-29.23	4.36	-35.33	52.43	-8.26	-43.80
	-31.23	59.07	-27.97	164.11	-31.75	59.36	-28.58	11.28	-27.17	0.24	-28.92	4.76	-8.24	-44.11
	-28.77	8.31	-31.75	59.85	-27.77	149.71	-30.14	61.84	-28.18	10.08	-26.95	1.87	-8.25	-45.13
	-27.22	0.41	-28.59	11.35	-30.13	61.73	-27.81	155.45	-31.04	52.69	-28.17	11.33	-8.23	-45.07
	-29.25	4.53	-27.18	0.29	-28.17	9.96	-31.04	52.99	-27.67	153.85	-31.05	62.04	-8.24	-44.56
	-35.34	52.61	-28.95	4.81	-26.95	1.79	-28.22	11.34	-31.10	62.08	-27.81	152.95	-8.24	-44.02
	-8.27	-43.69	-8.26	-44.06	-8.24	-45.15	-8.24	-45.07	-8.23	-44.57	-8.24	-43.98	-18.48	51.50
103.12	-27.83	148.74	-31.09	57.82	-28.68	7.18	-27.11	-0.48	-29.12	3.53	-35.19	50.39	-8.27	-45.46
	-31.04	57.54	-28.10	164.47	-31.57	57.85	-28.44	10.57	-27.07	-0.46	-28.81	3.92	-8.26	-45.80
	-28.65	7.47	-31.57	58.08	-27.91	149.17	-29.94	60.42	-28.05	9.39	-26.85	1.21	-8.26	-46.82
	-27.12	-0.34	-28.46	10.67	-29.94	60.31	-27.95	155.43	-30.85	51.33	-28.04	10.68	-8.25	-46.79
	-29.13	3.63	-27.09	-0.39	-28.05	9.33	-30.84	51.53	-27.83	153.61	-30.87	60.44	-8.24	-46.21
	-35.20	50.51	-28.82	4.03	-26.85	1.13	-28.09	10.62	-30.91	60.55	-27.94	152.75	-8.25	-45.67
	-8.28	-45.35	-8.27	-45.72	-8.25	-46.87	-8.25	-46.75	-8.24	-46.22	-8.25	-45.64	-18.29	49.63
106.86	-27.96	148.38	-30.92	56.45	-28.55	6.35	-27.01	-1.24	-29.01	2.62	-35.06	48.22	-8.28	-47.10
	-30.85	56.05	-28.23	164.86	-31.39	56.13	-28.32	9.87	-26.98	-1.20	-28.70	3.08	-8.26	-47.45
	-28.53	6.66	-31.39	56.56	-28.04	148.99	-29.75	59.00	-27.93	8.73	-26.75	0.51	-8.26	-48.51
	-27.02	-1.12	-28.34	9.91	-29.75	58.94	-28.11	155.36	-30.66	49.88	-27.91	9.94	-8.26	-48.47
