! Mini-Circuits														
! S7P DATA File Format														
! Type: 6 Way 0 degree Power Splitter														
! Model: AD6PS-1+      														
! PINOUT: SUMPORT=PORT7 , OUT1 PORT=PORT1 , OUT2 PORT=PORT2 , OUT3 PORT=PORT3 , OUT4 PORT=PORT4 , OUT5 PORT=PORT5 , OUT6 PORT=PORT6														
! TEST CONDITIONS: INPUT POWER = 0 dBm @ Temperature = - 40 deg C														
! 401 Frequency points														
!														
! All S Parameters are in dB deg format														
!														
# MHz S DB R 50														
!														
! FREQ  MAG(S11)PHS(S11)MAG(S12)PHS(S12)MAG(S13)PHS(S13)MAG(S14)PHS(S14)MAG(S15)PHS(S15)MAG(S16)PHS(S16)MAG(S17)PHS(S17)  
!	MAG(S21)PHS(S21)MAG(S22)PHS(S22)MAG(S23)PHS(S23)MAG(S24)PHS(S24)MAG(S25)PHS(S25)MAG(S26)PHS(S26)MAG(S27)PHS(S27)  
!	MAG(S31)PHS(S31)MAG(S32)PHS(S32)MAG(S33)PHS(S33)MAG(S34)PHS(S34)MAG(S35)PHS(S35)MAG(S36)PHS(S36)MAG(S37)PHS(S37)  
!	MAG(S41)PHS(S41)MAG(S42)PHS(S42)MAG(S43)PHS(S43)MAG(S44)PHS(S44)MAG(S45)PHS(S45)MAG(S46)PHS(S46)MAG(S47)PHS(S47)  
!	MAG(S51)PHS(S51)MAG(S52)PHS(S52)MAG(S53)PHS(S53)MAG(S54)PHS(S54)MAG(S55)PHS(S55)MAG(S56)PHS(S56)MAG(S57)PHS(S57)  
!	MAG(S61)PHS(S61)MAG(S62)PHS(S62)MAG(S63)PHS(S63)MAG(S64)PHS(S64)MAG(S65)PHS(S65)MAG(S66)PHS(S66)MAG(S67)PHS(S67)  
!	MAG(S71)PHS(S71)MAG(S72)PHS(S72)MAG(S73)PHS(S73)MAG(S74)PHS(S74)MAG(S75)PHS(S75)MAG(S76)PHS(S76)MAG(S77)PHS(S77)  
!
2.00	-14.62	143.50	-32.93	145.36	-25.96	-26.43	-21.75	-27.62	-24.59	-30.39	-36.68	162.79	-8.12	0.91
	-32.97	145.34	-15.00	144.49	-29.79	145.23	-25.17	-29.79	-21.54	-27.64	-24.18	-28.83	-8.13	1.01
	-25.95	-26.32	-29.76	145.31	-14.58	143.51	-35.54	164.97	-23.22	-30.24	-21.48	-26.93	-8.14	0.96
	-21.75	-27.47	-25.17	-30.09	-35.43	165.00	-13.44	142.52	-41.09	165.51	-23.72	-28.92	-8.14	0.93
	-24.62	-30.23	-21.54	-27.84	-23.21	-30.36	-41.09	165.98	-13.46	143.52	-30.56	151.36	-8.13	0.90
	-36.62	163.33	-24.18	-29.13	-21.47	-27.04	-23.75	-29.18	-30.56	151.13	-13.98	143.45	-8.13	0.83
	-8.13	1.05	-8.12	0.92	-8.12	0.89	-8.13	0.91	-8.12	0.88	-8.13	0.97	-23.90	142.92
5.75	-18.15	139.70	-36.09	125.32	-28.45	-26.16	-24.72	-31.02	-28.03	-33.29	-37.83	147.48	-8.01	-1.54
	-36.11	124.84	-18.38	141.48	-33.18	127.99	-28.45	-30.57	-24.62	-31.98	-27.30	-32.05	-8.02	-1.52
	-28.43	-25.96	-33.15	128.22	-18.13	139.91	-36.25	143.29	-26.74	-33.82	-24.41	-30.82	-8.03	-1.56
	-24.72	-30.93	-28.46	-30.63	-36.25	143.15	-17.13	138.67	-41.86	129.40	-26.87	-30.65	-8.04	-1.54
	-28.04	-33.13	-24.62	-31.97	-26.75	-33.90	-41.82	130.27	-17.06	139.27	-33.12	133.09	-8.03	-1.55
	-37.80	147.56	-27.32	-32.04	-24.41	-30.90	-26.89	-30.81	-33.12	133.04	-17.49	139.15	-8.03	-1.53
	-8.02	-1.43	-8.03	-1.53	-8.03	-1.64	-8.05	-1.53	-8.03	-1.56	-8.05	-1.46	-26.39	136.21
9.49	-20.53	137.29	-37.87	112.11	-30.24	-25.86	-26.80	-31.56	-30.31	-31.79	-38.76	133.14	-7.98	-3.60
	-37.82	111.73	-20.71	139.39	-35.06	115.88	-30.58	-28.25	-26.78	-32.50	-29.50	-32.32	-7.99	-3.59
	-30.22	-25.58	-35.02	116.25	-20.48	137.78	-37.21	126.77	-29.07	-32.97	-26.48	-31.79	-8.00	-3.65
	-26.80	-31.42	-30.59	-28.22	-37.22	126.60	-19.53	136.12	-42.06	107.87	-28.89	-30.52	-8.00	-3.62
	-30.33	-31.61	-26.80	-32.52	-29.08	-33.12	-42.06	108.63	-19.44	136.44	-34.77	118.79	-8.00	-3.57
	-38.79	133.16	-29.51	-32.32	-26.48	-31.93	-28.91	-30.70	-34.79	118.77	-19.83	136.14	-7.99	-3.56
	-7.99	-3.52	-7.99	-3.60	-7.99	-3.73	-8.01	-3.61	-7.99	-3.58	-8.00	-3.48	-27.33	129.19
13.24	-22.24	137.84	-38.65	104.06	-31.51	-22.31	-28.26	-28.73	-31.81	-26.92	-39.49	122.92	-7.97	-5.47
	-38.65	103.81	-22.41	140.44	-36.17	107.79	-31.96	-22.82	-28.30	-29.44	-31.07	-28.83	-7.98	-5.49
	-31.49	-22.05	-36.14	107.91	-22.17	138.49	-37.67	116.23	-30.68	-28.67	-27.99	-29.24	-7.99	-5.58
	-28.26	-28.58	-31.98	-22.76	-37.67	116.14	-21.32	136.50	-41.74	96.60	-30.38	-27.35	-7.99	-5.56
	-31.81	-26.74	-28.32	-29.46	-30.69	-28.69	-41.72	96.99	-21.21	136.58	-35.87	109.70	-7.99	-5.50
	-39.51	122.97	-31.08	-28.86	-28.00	-29.32	-30.41	-27.48	-35.88	109.71	-21.58	136.09	-7.99	-5.44
	-7.98	-5.37	-7.99	-5.50	-7.99	-5.64	-8.00	-5.55	-7.99	-5.50	-7.99	-5.37	-27.47	122.71
16.98	-23.46	139.33	-38.87	98.30	-32.30	-17.89	-29.21	-24.76	-32.70	-21.27	-39.84	115.23	-7.97	-7.25
	-38.85	97.96	-23.63	142.39	-36.78	101.60	-32.73	-16.80	-29.29	-25.26	-32.09	-23.98	-7.98	-7.33
	-32.27	-17.52	-36.74	101.81	-23.39	140.10	-37.70	108.83	-31.72	-22.99	-29.00	-25.32	-7.99	-7.41
	-29.21	-24.62	-32.76	-16.73	-37.70	108.65	-22.63	137.83	-41.14	89.52	-31.40	-22.82	-7.99	-7.44
	-32.71	-21.17	-29.31	-25.24	-31.72	-23.14	-41.15	89.84	-22.51	137.81	-36.44	103.22	-7.99	-7.29
	-39.84	115.16	-32.12	-23.89	-29.01	-25.50	-31.41	-22.94	-36.45	103.25	-22.84	137.25	-7.98	-7.22
	-7.98	-7.18	-7.99	-7.26	-7.99	-7.49	-8.01	-7.39	-7.99	-7.34	-7.99	-7.19	-27.21	116.74
20.00	-24.20	140.61	-38.76	94.72	-32.65	-14.21	-29.70	-21.45	-33.09	-16.88	-39.92	110.07	-7.98	-8.67
	-38.75	94.58	-24.36	144.08	-36.97	97.65	-33.04	-12.17	-29.80	-21.70	-32.60	-19.86	-7.98	-8.73
	-32.65	-13.92	-36.92	97.98	-24.13	141.47	-37.54	104.07	-32.22	-18.38	-29.53	-21.96	-8.00	-8.86
	-29.71	-21.28	-33.05	-12.05	-37.53	103.89	-23.45	139.19	-40.55	85.60	-31.92	-18.86	-8.00	-8.87
	-33.10	-16.83	-29.81	-21.72	-32.22	-18.42	-40.55	86.21	-23.32	139.03	-36.62	99.24	-7.99	-8.72
	-39.94	110.11	-32.62	-19.83	-29.54	-22.08	-31.95	-18.97	-36.63	99.16	-23.61	138.43	-7.99	-8.65
	-7.99	-8.57	-7.99	-8.68	-7.99	-8.95	-8.01	-8.83	-7.99	-8.78	-8.00	-8.57	-26.84	112.24
24.47	-25.04	142.31	-38.44	90.46	-32.97	-9.20	-30.17	-16.75	-33.39	-11.11	-39.87	103.37	-7.99	-10.73
	-38.43	90.35	-25.24	146.43	-37.02	92.82	-33.24	-6.16	-30.28	-16.79	-33.07	-13.98	-7.99	-10.81
	-32.97	-8.85	-37.01	93.34	-24.99	143.20	-37.15	98.02	-32.62	-11.94	-30.05	-17.16	-8.00	-11.00
	-30.18	-16.62	-33.25	-6.09	-37.16	97.97	-24.43	141.09	-39.70	81.35	-32.44	-13.13	-8.00	-10.96
	-33.40	-10.98	-30.29	-16.81	-32.63	-12.03	-39.69	81.81	-24.30	140.79	-36.64	94.41	-8.00	-10.82
	-39.90	103.47	-33.07	-14.03	-30.05	-17.26	-32.45	-13.31	-36.65	94.11	-24.51	140.22	-7.99	-10.71
	-7.99	-10.64	-8.00	-10.76	-8.01	-11.03	-8.01	-10.94	-8.00	-10.85	-8.00	-10.61	-26.21	106.12
28.22	-25.56	143.52	-38.01	87.86	-33.04	-5.53	-30.36	-13.42	-33.41	-7.10	-39.68	98.32	-7.99	-12.42
	-37.96	87.69	-25.79	148.03	-36.86	89.51	-33.21	-2.04	-30.44	-13.36	-33.20	-9.85	-8.00	-12.51
	-33.05	-5.12	-36.84	89.91	-25.53	144.38	-36.70	94.01	-32.73	-7.29	-30.26	-13.56	-8.01	-12.73
	-30.35	-13.24	-33.23	-2.11	-36.70	93.89	-25.06	142.46	-38.95	78.90	-32.63	-8.73	-8.01	-12.73
	-33.43	-7.00	-30.47	-13.30	-32.72	-7.39	-38.98	79.31	-24.92	142.16	-36.45	90.97	-8.01	-12.52
	-39.70	98.39	-33.20	-9.74	-30.26	-13.68	-32.64	-8.80	-36.50	90.79	-25.08	141.64	-8.00	-12.41
	-8.00	-12.34	-8.01	-12.47	-8.01	-12.78	-8.02	-12.68	-8.01	-12.56	-8.01	-12.34	-25.63	101.56
31.96	-25.99	144.25	-37.51	85.08	-33.01	-2.41	-30.41	-10.62	-33.34	-4.07	-39.46	94.06	-8.00	-14.10
	-37.46	85.05	-26.25	149.15	-36.60	86.73	-33.09	1.19	-30.52	-10.55	-33.19	-6.35	-8.01	-14.21
	-33.03	-1.97	-36.58	87.02	-25.97	145.03	-36.26	90.57	-32.70	-3.56	-30.35	-10.57	-8.02	-14.44
	-30.44	-10.52	-33.11	1.19	-36.24	90.46	-25.57	143.50	-38.25	76.82	-32.66	-4.81	-8.02	-14.46
	-33.36	-3.84	-30.52	-10.49	-32.70	-3.73	-38.24	77.12	-25.43	143.14	-36.17	88.15	-8.01	-14.25
	-39.45	94.06	-33.20	-6.31	-30.36	-10.70	-32.68	-5.00	-36.23	87.86	-25.51	142.86	-8.01	-14.10
	-8.01	-14.03	-8.01	-14.17	-8.02	-14.53	-8.02	-14.40	-8.01	-14.28	-8.02	-14.01	-25.04	97.32
35.71	-26.36	144.44	-36.98	82.81	-32.92	0.11	-30.44	-8.36	-33.25	-1.67	-39.19	89.90	-8.01	-15.80
	-36.93	82.56	-26.65	149.94	-36.27	83.91	-32.93	3.91	-30.51	-8.18	-33.11	-3.54	-8.01	-15.90
	-32.94	0.63	-36.28	84.22	-26.36	145.37	-35.77	87.54	-32.59	-0.42	-30.38	-8.02	-8.03	-16.20
	-30.45	-8.15	-32.93	3.95	-35.78	87.41	-26.00	144.08	-37.56	74.63	-32.60	-1.54	-8.02	-16.17
	-33.26	-1.45	-30.54	-8.02	-32.59	-0.52	-37.55	75.01	-25.85	143.75	-35.85	85.50	-8.02	-15.96
	-39.20	89.65	-33.15	-3.39	-30.37	-8.11	-32.61	-1.63	-35.89	85.35	-25.88	143.59	-8.01	-15.77
	-8.02	-15.70	-8.03	-15.85	-8.02	-16.23	-8.04	-16.12	-8.02	-15.98	-8.02	-15.71	-24.46	93.40
39.45	-26.71	144.43	-36.47	80.55	-32.79	2.37	-30.40	-6.36	-33.09	0.44	-38.90	86.17	-8.02	-17.47
	-36.41	80.44	-27.04	150.44	-35.95	81.51	-32.73	6.16	-30.49	-6.08	-33.01	-1.15	-8.01	-17.58
	-32.81	3.05	-35.93	81.96	-26.72	145.32	-35.33	84.73	-32.45	2.24	-30.36	-5.88	-8.03	-17.89
	-30.43	-6.22	-32.76	6.18	-35.32	84.60	-26.39	144.42	-36.95	72.86	-32.49	1.31	-8.02	-17.90
	-33.12	0.49	-30.50	-5.95	-32.47	2.02	-36.94	73.20	-26.24	143.92	-35.47	83.12	-8.03	-17.64
	-38.93	86.43	-33.03	-1.07	-30.35	-5.93	-32.51	1.10	-35.56	82.96	-26.20	144.09	-8.02	-17.44
	-8.03	-17.37	-8.03	-17.54	-8.04	-17.95	-8.04	-17.83	-8.03	-17.68	-8.04	-17.39	-23.90	89.82
43.20	-27.01	144.10	-35.98	78.30	-32.65	4.35	-30.35	-4.57	-32.94	2.25	-38.59	82.88	-8.03	-19.13
	-35.93	78.28	-27.37	150.77	-35.58	79.08	-32.53	8.06	-30.43	-4.27	-32.86	1.02	-8.03	-19.24
	-32.64	5.00	-35.55	79.34	-27.04	145.16	-34.86	82.31	-32.28	4.49	-30.30	-3.97	-8.04	-19.62
	-30.37	-4.51	-32.55	8.08	-34.86	82.24	-26.74	144.36	-36.36	71.18	-32.34	3.69	-8.04	-19.60
	-32.95	2.44	-30.44	-4.25	-32.28	4.35	-36.34	71.32	-26.57	143.96	-35.11	80.84	-8.03	-19.35
	-38.61	83.07	-32.87	1.06	-30.30	-4.11	-32.35	3.50	-35.16	80.61	-26.50	144.33	-8.03	-19.09
	-8.03	-19.03	-8.04	-19.21	-8.04	-19.66	-8.05	-19.55	-8.03	-19.37	-8.04	-19.05	-23.38	86.50
46.94	-27.31	143.74	-35.52	76.36	-32.45	6.00	-30.26	-3.10	-32.76	3.71	-38.27	79.86	-8.04	-20.80
	-35.46	76.27	-27.71	151.00	-35.22	76.89	-32.29	9.61	-30.33	-2.77	-32.70	2.73	-8.03	-20.92
	-32.45	6.58	-35.20	77.18	-27.32	144.67	-34.42	80.01	-32.09	6.44	-30.21	-2.35	-8.05	-21.32
	-30.29	-3.00	-32.29	9.72	-34.42	79.96	-27.08	144.21	-35.83	69.36	-32.16	5.70	-8.04	-21.31
	-32.75	3.90	-30.34	-2.78	-32.08	6.37	-35.80	69.96	-26.89	143.66	-34.74	78.76	-8.04	-21.02
	-38.29	79.85	-32.71	2.69	-30.20	-2.40	-32.18	5.52	-34.83	78.56	-26.79	144.60	-8.04	-20.76
	-8.04	-20.70	-8.04	-20.87	-8.05	-21.35	-8.05	-21.23	-8.04	-21.03	-8.05	-20.67	-22.88	83.35
50.69	-27.56	143.21	-35.09	74.52	-32.26	7.36	-30.15	-1.89	-32.56	4.87	-37.99	76.72	-8.05	-22.42
	-35.02	74.43	-27.99	151.10	-34.89	74.81	-32.05	10.92	-30.21	-1.45	-32.50	4.17	-8.05	-22.59
	-32.23	7.91	-34.87	75.06	-27.59	144.03	-33.99	78.02	-31.87	7.99	-30.09	-0.85	-8.06	-23.01
	-30.17	-1.77	-32.06	11.02	-34.01	77.90	-27.39	143.96	-35.31	67.95	-31.96	7.44	-8.05	-23.01
	-32.56	5.14	-30.22	-1.46	-31.87	7.93	-35.31	68.13	-27.19	143.20	-34.40	76.68	-8.05	-22.68
	-37.97	76.96	-32.52	4.29	-30.09	-1.00	-31.99	7.24	-34.44	76.50	-27.05	144.76	-8.04	-22.41
	-8.05	-22.33	-8.06	-22.53	-8.05	-23.05	-8.06	-22.95	-8.05	-22.72	-8.06	-22.31	-22.41	80.34
54.43	-27.80	142.63	-34.69	72.72	-32.04	8.40	-30.02	-0.87	-32.35	5.80	-37.69	73.96	-8.06	-24.09
	-34.61	72.63	-28.26	151.08	-34.55	72.72	-31.81	11.94	-30.07	-0.49	-32.29	5.28	-8.05	-24.25
	-32.04	8.97	-34.52	73.14	-27.81	143.52	-33.59	75.90	-31.64	9.25	-29.96	0.26	-8.07	-24.70
	-30.04	-0.72	-31.83	11.90	-33.61	75.99	-27.66	143.59	-34.84	66.34	-31.74	8.91	-8.06	-24.70
	-32.37	5.96	-30.10	-0.54	-31.64	9.30	-34.84	66.68	-27.46	142.80	-34.02	74.76	-8.06	-24.37
	-37.67	74.23	-32.32	5.32	-29.95	0.13	-31.78	8.69	-34.10	74.64	-27.32	144.93	-8.06	-24.03
	-8.07	-23.96	-8.07	-24.19	-8.07	-24.76	-8.07	-24.66	-8.06	-24.40	-8.07	-23.98	-21.97	77.46
58.18	-28.02	141.90	-34.27	71.15	-31.83	9.32	-29.90	-0.12	-32.14	6.47	-37.39	71.35	-8.06	-25.75
	-34.19	70.90	-28.52	150.97	-34.21	70.87	-31.57	12.69	-29.93	0.38	-32.09	6.15	-8.06	-25.92
	-31.80	9.84	-34.19	71.13	-28.04	142.89	-33.22	74.09	-31.40	10.37	-29.81	1.15	-8.07	-26.41
	-29.91	0.11	-31.58	12.74	-33.21	73.98	-27.93	143.09	-34.40	64.84	-31.52	10.16	-8.06	-26.39
	-32.16	6.63	-29.94	0.41	-31.41	10.27	-34.37	65.20	-27.71	142.32	-33.67	72.86	-8.06	-26.05
	-37.38	71.49	-32.11	6.26	-29.81	1.01	-31.56	9.83	-33.75	72.80	-27.58	145.04	-8.06	-25.72
	-8.07	-25.64	-8.07	-25.85	-8.07	-26.46	-8.08	-26.31	-8.07	-26.07	-8.07	-25.62	-21.54	74.83
61.92	-28.22	141.10	-33.90	69.43	-31.61	9.95	-29.74	0.60	-31.93	6.94	-37.08	68.81	-8.08	-27.39
	-33.83	69.31	-28.73	150.90	-33.89	68.98	-31.34	13.20	-29.79	1.02	-31.88	6.78	-8.08	-27.58
	-31.60	10.51	-33.88	69.39	-28.24	142.21	-32.84	72.28	-31.17	11.16	-29.66	1.93	-8.08	-28.10
	-29.76	0.77	-31.35	13.34	-32.85	72.17	-28.15	142.70	-33.98	63.45	-31.30	11.09	-8.08	-28.09
	-31.95	7.00	-29.80	1.07	-31.18	11.06	-33.99	63.80	-27.94	141.80	-33.36	71.15	-8.07	-27.74
	-37.10	69.06	-31.90	6.83	-29.66	1.84	-31.34	10.92	-33.43	71.06	-27.81	145.05	-8.07	-27.37
	-8.09	-27.27	-8.08	-27.53	-8.08	-28.16	-8.09	-28.04	-8.07	-27.77	-8.08	-27.29	-21.15	72.17
65.66	-28.38	140.30	-33.54	67.77	-31.41	10.46	-29.59	1.06	-31.73	7.24	-36.82	66.30	-8.09	-29.02
	-33.47	67.71	-28.92	150.81	-33.57	67.31	-31.09	13.57	-29.63	1.50	-31.67	7.29	-8.08	-29.24
	-31.37	11.00	-33.57	67.65	-28.40	141.49	-32.52	70.61	-30.95	11.75	-29.50	2.41	-8.09	-29.80
	-29.60	1.23	-31.13	13.71	-32.51	70.47	-28.35	142.18	-33.59	62.03	-31.07	11.78	-8.08	-29.79
	-31.73	7.45	-29.65	1.55	-30.95	11.65	-33.60	62.27	-28.13	141.35	-33.04	69.52	-8.08	-29.41
	-36.84	66.40	-31.68	7.27	-29.51	2.43	-31.09	11.60	-33.11	69.41	-28.04	145.06	-8.08	-28.99
	-8.09	-28.95	-8.10	-29.18	-8.09	-29.86	-8.09	-29.72	-8.08	-29.42	-8.09	-28.94	-20.78	69.70
69.41	-28.56	139.53	-33.17	66.22	-31.18	10.82	-29.44	1.36	-31.52	7.40	-36.57	63.95	-8.10	-30.69
	-33.11	66.18	-29.11	150.81	-33.29	65.64	-30.87	13.89	-29.48	1.83	-31.47	7.57	-8.09	-30.90
	-31.16	11.41	-33.28	65.89	-28.57	140.70	-32.19	68.98	-30.72	12.10	-29.34	2.97	-8.10	-31.50
	-29.46	1.53	-30.89	13.86	-32.18	68.84	-28.53	141.79	-33.22	60.69	-30.83	12.46	-8.09	-31.47
	-31.53	7.57	-29.49	1.89	-30.72	12.03	-33.22	60.85	-28.32	140.73	-32.72	67.94	-8.09	-31.09
	-36.58	64.22	-31.48	7.60	-29.34	2.84	-30.88	12.16	-32.81	67.88	-28.30	145.06	-8.09	-30.67
	-8.11	-30.60	-8.10	-30.85	-8.10	-31.54	-8.11	-31.43	-8.09	-31.11	-8.10	-30.59	-20.44	67.29
73.16	-28.69	138.76	-32.87	64.69	-30.94	10.96	-29.29	1.63	-31.32	7.40	-36.32	61.65	-8.11	-32.34
	-32.80	64.55	-29.27	150.62	-32.99	63.86	-30.66	13.93	-29.32	2.07	-31.25	7.64	-8.10	-32.57
	-30.93	11.44	-33.00	64.19	-28.70	140.22	-31.88	67.42	-30.50	12.37	-29.19	3.23	-8.11	-33.21
	-29.31	1.70	-30.67	14.00	-31.87	67.24	-28.71	141.27	-32.86	59.23	-30.59	12.73	-8.10	-33.17
	-31.33	7.49	-29.33	2.10	-30.49	12.33	-32.89	59.60	-28.49	140.41	-32.45	66.24	-8.10	-32.77
	-36.32	61.82	-31.28	7.78	-29.18	3.16	-30.65	12.65	-32.50	66.15	-28.51	145.06	-8.10	-32.32
	-8.11	-32.25	-8.11	-32.53	-8.11	-33.25	-8.11	-33.13	-8.10	-32.78	-8.11	-32.25	-20.11	64.93
76.90	-28.83	138.04	-32.55	63.19	-30.75	10.92	-29.14	1.68	-31.14	7.24	-36.08	59.49	-8.12	-33.98
	-32.49	62.95	-29.45	150.79	-32.75	62.21	-30.44	13.92	-29.17	2.11	-31.06	7.71	-8.11	-34.23
	-30.72	11.44	-32.72	62.53	-28.83	139.54	-31.57	65.79	-30.28	12.50	-29.03	3.38	-8.12	-34.90
	-29.15	1.77	-30.45	14.02	-31.58	65.72	-28.88	141.00	-32.56	57.80	-30.37	12.96	-8.11	-34.88
	-31.15	7.35	-29.18	2.17	-30.28	12.49	-32.56	58.13	-28.63	139.95	-32.16	64.68	-8.11	-34.46
	-36.10	59.58	-31.07	7.80	-29.02	3.31	-30.43	12.83	-32.24	64.58	-28.74	145.07	-8.11	-33.96
	-8.13	-33.88	-8.12	-34.18	-8.12	-34.94	-8.12	-34.80	-8.11	-34.45	-8.12	-33.90	-19.81	62.60
80.65	-28.97	137.23	-32.27	61.67	-30.53	10.90	-28.99	1.61	-30.94	7.00	-35.87	57.40	-8.13	-35.62
	-32.21	61.54	-29.59	150.81	-32.47	60.60	-30.24	13.81	-29.01	2.08	-30.87	7.58	-8.12	-35.89
	-30.53	11.44	-32.47	60.97	-28.96	139.13	-31.30	64.32	-30.08	12.52	-28.87	3.43	-8.13	-36.58
	-29.00	1.72	-30.25	13.84	-31.29	64.21	-29.02	140.62	-32.24	56.43	-30.16	13.14	-8.12	-36.56
	-30.95	7.15	-29.03	2.07	-30.08	12.42	-32.25	56.73	-28.78	139.75	-31.91	63.19	-8.11	-36.12
	-35.90	57.36	-30.89	7.63	-28.87	3.33	-30.20	12.98	-31.96	63.03	-28.98	144.84	-8.12	-35.60
	-8.14	-35.55	-8.13	-35.83	-8.13	-36.65	-8.13	-36.52	-8.11	-36.13	-8.13	-35.54	-19.52	60.36
84.39	-29.08	136.72	-31.99	60.17	-30.34	10.67	-28.84	1.44	-30.76	6.69	-35.68	55.15	-8.14	-37.28
	-31.92	60.05	-29.72	151.02	-32.24	59.01	-30.03	13.52	-28.86	1.91	-30.68	7.28	-8.13	-37.57
	-30.32	11.18	-32.23	59.32	-29.07	138.74	-31.04	62.86	-29.88	12.36	-28.71	3.34	-8.14	-38.29
	-28.86	1.64	-30.05	13.60	-31.03	62.77	-29.17	140.45	-31.96	55.04	-29.94	13.06	-8.12	-38.29
	-30.77	6.83	-28.88	1.98	-29.88	12.25	-31.96	55.41	-28.93	139.54	-31.65	61.60	-8.12	-37.81
	-35.69	55.28	-30.69	7.36	-28.71	3.26	-29.99	12.95	-31.72	61.54	-29.19	144.88	-8.13	-37.25
	-8.15	-37.17	-8.14	-37.47	-8.13	-38.34	-8.13	-38.18	-8.12	-37.82	-8.14	-37.18	-19.26	58.20
88.14	-29.16	136.25	-31.72	58.79	-30.15	10.31	-28.70	1.25	-30.59	6.28	-35.48	53.01	-8.15	-38.92
	-31.68	58.48	-29.84	151.49	-32.01	57.33	-29.85	13.23	-28.72	1.69	-30.50	6.98	-8.14	-39.23
	-30.13	10.75	-32.00	57.75	-29.16	138.35	-30.79	61.45	-29.69	12.16	-28.57	3.18	-8.15	-40.00
	-28.71	1.39	-29.86	13.21	-30.78	61.31	-29.29	140.38	-31.70	53.62	-29.73	12.88	-8.13	-39.96
	-30.60	6.38	-28.73	1.76	-29.69	12.10	-31.70	54.00	-29.06	139.38	-31.42	60.10	-8.13	-39.47
	-35.48	53.13	-30.51	7.01	-28.56	3.13	-29.78	12.81	-31.47	60.03	-29.40	144.84	-8.13	-38.89
	-8.16	-38.83	-8.15	-39.17	-8.14	-40.05	-8.14	-39.92	-8.13	-39.51	-8.14	-38.84	-19.01	56.11
91.88	-29.26	135.74	-31.50	57.31	-29.97	9.92	-28.57	0.95	-30.42	5.75	-35.30	51.01	-8.16	-40.58
	-31.44	57.16	-29.95	151.87	-31.79	55.85	-29.68	12.80	-28.58	1.42	-30.33	6.56	-8.15	-40.90
	-29.95	10.39	-31.79	56.23	-29.28	138.11	-30.56	60.04	-29.51	11.85	-28.42	2.93	-8.15	-41.68
	-28.58	1.02	-29.68	12.87	-30.55	59.96	-29.42	140.44	-31.44	52.28	-29.54	12.65	-8.14	-41.65
	-30.43	5.93	-28.59	1.42	-29.51	11.74	-31.44	52.63	-29.18	139.41	-31.19	58.68	-8.14	-41.16
	-35.30	51.04	-30.34	6.65	-28.42	2.82	-29.58	12.61	-31.25	58.59	-29.62	144.71	-8.14	-40.55
	-8.17	-40.49	-8.16	-40.82	-8.15	-41.73	-8.15	-41.59	-8.14	-41.14	-8.15	-40.50	-18.78	54.04
95.63	-29.34	135.48	-31.27	55.91	-29.80	9.45	-28.42	0.51	-30.26	5.14	-35.13	48.89	-8.17	-42.25
	-31.21	55.75	-30.06	152.66	-31.59	54.39	-29.50	12.35	-28.45	0.96	-30.16	6.05	-8.16	-42.53
	-29.78	9.87	-31.58	54.74	-29.38	137.93	-30.33	58.70	-29.34	11.47	-28.28	2.57	-8.16	-43.40
	-28.44	0.63	-29.51	12.41	-30.33	58.61	-29.56	140.66	-31.21	50.98	-29.35	12.31	-8.15	-43.35
	-30.26	5.24	-28.46	0.99	-29.33	11.37	-31.20	51.40	-29.31	139.46	-30.99	57.22	-8.15	-42.85
	-35.14	49.03	-30.17	6.10	-28.28	2.52	-29.40	12.29	-31.05	57.14	-29.83	144.71	-8.15	-42.20
	-8.18	-42.15	-8.17	-42.49	-8.16	-43.44	-8.16	-43.30	-8.15	-42.84	-8.16	-42.15	-18.56	52.03
99.37	-29.44	135.27	-31.05	54.55	-29.63	8.99	-28.30	0.03	-30.11	4.49	-34.98	46.87	-8.18	-43.89
	-30.99	54.29	-30.17	153.48	-31.39	52.87	-29.34	11.76	-28.32	0.48	-30.01	5.45	-8.17	-44.21
	-29.61	9.36	-31.39	53.26	-29.51	138.03	-30.13	57.33	-29.17	10.98	-28.15	2.19	-8.17	-45.08
	-28.31	0.13	-29.35	11.79	-30.12	57.31	-29.69	141.03	-30.98	49.65	-29.16	11.94	-8.16	-45.08
	-30.13	4.61	-28.33	0.50	-29.17	10.92	-30.97	50.04	-29.46	139.80	-30.77	55.78	-8.16	-44.51
	-34.98	47.04	-30.02	5.50	-28.14	2.09	-29.22	11.84	-30.83	55.74	-30.04	144.76	-8.16	-43.87
	-8.19	-43.78	-8.17	-44.18	-8.16	-45.15	-8.17	-45.04	-8.16	-44.55	-8.17	-43.77	-18.36	50.06
103.12	-29.55	135.27	-30.86	53.14	-29.48	8.32	-28.18	-0.52	-29.97	3.71	-34.84	44.83	-8.19	-45.55
	-30.80	52.90	-30.28	154.48	-31.22	51.43	-29.19	11.16	-28.20	-0.10	-29.86	4.75	-8.18	-45.91
	-29.45	8.65	-31.22	51.75	-29.63	138.05	-29.93	56.03	-29.01	10.47	-28.01	1.70	-8.18	-46.81
	-28.19	-0.40	-29.20	11.18	-29.93	55.96	-29.82	141.59	-30.78	48.38	-29.00	11.35	-8.17	-46.78
	-29.98	3.90	-28.20	-0.01	-29.01	10.38	-30.77	48.66	-29.60	140.04	-30.59	54.35	-8.16	-46.20
	-34.84	44.97	-29.87	4.85	-28.01	1.67	-29.05	11.31	-30.64	54.41	-30.25	144.91	-8.17	-45.52
	-8.21	-45.47	-8.18	-45.85	-8.17	-46.83	-8.18	-46.71	-8.17	-46.20	-8.18	-45.47	-18.18	48.14
106.86	-29.64	135.36	-30.67	51.89	-29.32	7.64	-28.06	-1.11	-29.83	2.91	-34.71	42.88	-8.21	-47.20
