!Mini-Circuits Lab.;
!S-parameters;
!Model: AMP-75+;  Unit 2;
!Run: MN99030;  Lot: N/A;  Date Code: 1032; Vcc=15V; Icc=26.66mA; 
!Fixture: 90-0-16-01;  S/N:72896;  Cal.Due: 12/17/2011;
!Connection: Port 1 to Pin 2; Port 2 to Pin 4; Pin 1 - DC Supply; Pin 3 - grounded; Port extension done on both ports.
!Tested with PNA-L Network Analyzer N5230A, S/N: 67766; Cal.Due: 09/22/2012. 
# MHZ S DB R 50
!Frequency        S11 dB  S11 DEG   S21 dB  S21 DEG   S12 dB  S12 DEG   S22 dB  S22 DEG
    .3000     -1.460194E+001 -2.090614E+001  1.347176E+001 -1.483358E+002 -2.963286E+001  3.998996E+001 -2.918314E+000 -7.462673E+001
    .3100     -1.381151E+001 -1.302009E+001  1.314908E+001 -1.507894E+002 -2.954657E+001  4.038700E+001 -2.939576E+000 -7.598429E+001
    .3200     -1.288333E+001 -7.745829E+000  1.279062E+001 -1.527804E+002 -2.981847E+001  3.890701E+001 -2.938063E+000 -7.762186E+001
    .3300     -1.201345E+001 -5.027019E+000  1.238072E+001 -1.546094E+002 -3.047733E+001  3.695162E+001 -2.941627E+000 -7.955161E+001
    .3400     -1.111788E+001 -3.350260E+000  1.194969E+001 -1.559700E+002 -3.014425E+001  3.302413E+001 -2.864237E+000 -8.100552E+001
    .3500     -1.036121E+001 -2.752214E+000  1.145961E+001 -1.569241E+002 -3.058506E+001  3.374750E+001 -2.874246E+000 -8.265191E+001
    .3600     -9.589896E+000 -2.799190E+000  1.096350E+001 -1.571018E+002 -3.053036E+001  3.192303E+001 -2.824106E+000 -8.437458E+001
    .3700     -8.946069E+000 -3.338735E+000  1.041513E+001 -1.570154E+002 -3.085938E+001  3.204506E+001 -2.792947E+000 -8.609195E+001
    .3800     -8.462128E+000 -4.436225E+000  9.837461E+000 -1.562315E+002 -3.138854E+001  3.122097E+001 -2.783268E+000 -8.780755E+001
    .3900     -7.964095E+000 -5.751839E+000  9.291761E+000 -1.547290E+002 -3.140208E+001  2.894784E+001 -2.740267E+000 -8.960463E+001
    .4000     -7.518034E+000 -7.014976E+000  8.700294E+000 -1.526758E+002 -3.156898E+001  2.757942E+001 -2.707014E+000 -9.142957E+001
    .4100     -7.096119E+000 -8.416822E+000  8.135051E+000 -1.493674E+002 -3.214971E+001  2.793728E+001 -2.667712E+000 -9.316810E+001
    .4200     -6.734835E+000 -1.025252E+001  7.682754E+000 -1.450564E+002 -3.224595E+001  2.846784E+001 -2.633643E+000 -9.510738E+001
    .4300     -6.397653E+000 -1.193785E+001  7.326589E+000 -1.401344E+002 -3.256372E+001  2.906722E+001 -2.604681E+000 -9.694810E+001
    .4400     -6.117622E+000 -1.383099E+001  7.139407E+000 -1.344077E+002 -3.273425E+001  2.875060E+001 -2.569942E+000 -9.886330E+001
    .4500     -5.853392E+000 -1.574599E+001  7.143164E+000 -1.284487E+002 -3.317578E+001  3.152849E+001 -2.544844E+000 -1.007905E+002
    .4600     -5.637500E+000 -1.777431E+001  7.367069E+000 -1.225347E+002 -3.346652E+001  3.211253E+001 -2.527789E+000 -1.027686E+002
    .4700     -5.445794E+000 -1.992653E+001  7.780334E+000 -1.171966E+002 -3.367150E+001  3.421617E+001 -2.518774E+000 -1.048098E+002
    .4800     -5.264644E+000 -2.186736E+001  8.268241E+000 -1.128162E+002 -3.391560E+001  3.545728E+001 -2.501276E+000 -1.067835E+002
    .4900     -5.128277E+000 -2.391132E+001  8.856064E+000 -1.092402E+002 -3.408266E+001  3.854692E+001 -2.502218E+000 -1.087955E+002
    .5000     -5.004124E+000 -2.588330E+001  9.461354E+000 -1.066128E+002 -3.413992E+001  4.093692E+001 -2.504050E+000 -1.108823E+002
    .5100     -4.888994E+000 -2.803111E+001  1.013573E+001 -1.043249E+002 -3.414588E+001  4.375186E+001 -2.506773E+000 -1.129083E+002
    .5200     -4.831212E+000 -3.029233E+001  1.082757E+001 -1.032766E+002 -3.412059E+001  4.636142E+001 -2.543587E+000 -1.150043E+002
    .5300     -4.768366E+000 -3.190824E+001  1.131795E+001 -1.023325E+002 -3.404279E+001  4.918812E+001 -2.549351E+000 -1.169311E+002
    .5400     -4.724873E+000 -3.401495E+001  1.191155E+001 -1.019537E+002 -3.381922E+001  5.277116E+001 -2.592320E+000 -1.189437E+002
    .5500     -4.690583E+000 -3.563668E+001  1.238191E+001 -1.018706E+002 -3.358669E+001  5.457006E+001 -2.621247E+000 -1.208431E+002
    .5600     -4.640944E+000 -3.763719E+001  1.291406E+001 -1.016627E+002 -3.338340E+001  5.753045E+001 -2.648807E+000 -1.229683E+002
    .5700     -4.622078E+000 -3.959624E+001  1.340139E+001 -1.019966E+002 -3.310143E+001  5.919145E+001 -2.696513E+000 -1.250141E+002
    .5800     -4.591784E+000 -4.145247E+001  1.385481E+001 -1.022644E+002 -3.283561E+001  6.139936E+001 -2.741674E+000 -1.270162E+002
    .5900     -4.612111E+000 -4.357586E+001  1.430744E+001 -1.031663E+002 -3.252284E+001  6.231794E+001 -2.810371E+000 -1.290362E+002
    .6000     -4.626818E+000 -4.577087E+001  1.476250E+001 -1.039830E+002 -3.193362E+001  6.372443E+001 -2.895192E+000 -1.312041E+002
    .6100     -4.767019E+000 -4.842770E+001  1.526808E+001 -1.060005E+002 -3.129123E+001  6.402732E+001 -3.079362E+000 -1.333768E+002
    .6200     -5.188672E+000 -4.784682E+001  1.509282E+001 -1.091718E+002 -3.120983E+001  6.119971E+001 -3.250173E+000 -1.334110E+002
    .6300     -4.798494E+000 -4.871433E+001  1.534541E+001 -1.066573E+002 -3.132487E+001  6.505741E+001 -3.064843E+000 -1.355593E+002
    .6400     -4.822987E+000 -5.110362E+001  1.576666E+001 -1.077431E+002 -3.074513E+001  6.509775E+001 -3.185314E+000 -1.377791E+002
    .6500     -4.837440E+000 -5.309503E+001  1.613032E+001 -1.085221E+002 -3.044041E+001  6.545998E+001 -3.271625E+000 -1.398469E+002
    .6600     -4.919550E+000 -5.513275E+001  1.642759E+001 -1.098307E+002 -3.002778E+001  6.577482E+001 -3.402611E+000 -1.418155E+002
    .6700     -5.018365E+000 -5.746708E+001  1.677148E+001 -1.112617E+002 -2.962531E+001  6.595401E+001 -3.565731E+000 -1.439082E+002
    .6800     -5.305490E+000 -5.950768E+001  1.700912E+001 -1.137385E+002 -2.926973E+001  6.422282E+001 -3.812424E+000 -1.453194E+002
    .6900     -5.371587E+000 -6.088099E+001  1.720898E+001 -1.147419E+002 -2.897292E+001  6.343926E+001 -3.921338E+000 -1.469100E+002
    .7000     -5.749441E+000 -6.308726E+001  1.741252E+001 -1.175762E+002 -2.848723E+001  6.124107E+001 -4.267848E+000 -1.482220E+002
    .7100     -6.654134E+000 -6.324291E+001  1.727339E+001 -1.223812E+002 -2.835567E+001  5.602136E+001 -4.748439E+000 -1.468964E+002
    .7200     -6.112684E+000 -5.791571E+001  1.673730E+001 -1.187685E+002 -2.921383E+001  5.857220E+001 -4.115498E+000 -1.464768E+002
    .7300     -5.794035E+000 -6.097766E+001  1.719848E+001 -1.178230E+002 -2.878006E+001  6.074642E+001 -4.133626E+000 -1.497652E+002
    .7400     -6.284936E+000 -6.449326E+001  1.754537E+001 -1.212751E+002 -2.820755E+001  5.858147E+001 -4.585557E+000 -1.515720E+002
    .7500     -6.482434E+000 -6.225080E+001  1.725862E+001 -1.220322E+002 -2.851631E+001  5.644522E+001 -4.560416E+000 -1.504007E+002
    .7600     -6.515496E+000 -6.094072E+001  1.711427E+001 -1.221757E+002 -2.862428E+001  5.641889E+001 -4.485871E+000 -1.505980E+002
    .7700     -5.970973E+000 -6.240132E+001  1.741985E+001 -1.197377E+002 -2.841809E+001  5.963888E+001 -4.268314E+000 -1.537162E+002
    .7800     -5.953582E+000 -6.580914E+001  1.785339E+001 -1.206357E+002 -2.790351E+001  5.998808E+001 -4.478175E+000 -1.566262E+002
    .7900     -6.446371E+000 -6.786153E+001  1.796735E+001 -1.236353E+002 -2.764807E+001  5.729704E+001 -4.889019E+000 -1.572693E+002
    .8000     -6.720840E+000 -6.950877E+001  1.808620E+001 -1.253244E+002 -2.747222E+001  5.590677E+001 -5.125754E+000 -1.582848E+002
    .8100     -6.692145E+000 -6.283764E+001  1.739318E+001 -1.240826E+002 -2.822878E+001  5.508092E+001 -4.678469E+000 -1.553290E+002
    .8200     -6.521132E+000 -6.709554E+001  1.792751E+001 -1.242159E+002 -2.769482E+001  5.618926E+001 -4.846649E+000 -1.590513E+002
    .8300     -6.751459E+000 -6.504340E+001  1.767727E+001 -1.250507E+002 -2.788388E+001  5.499107E+001 -4.858459E+000 -1.581093E+002
    .8400     -6.198851E+000 -6.670319E+001  1.798845E+001 -1.228891E+002 -2.767918E+001  5.821850E+001 -4.615984E+000 -1.613886E+002
    .8500     -6.122807E+000 -6.968791E+001  1.832940E+001 -1.234546E+002 -2.727033E+001  5.836994E+001 -4.761452E+000 -1.641461E+002
    .8600     -6.220553E+000 -7.144128E+001  1.850699E+001 -1.244553E+002 -2.704815E+001  5.775193E+001 -4.934238E+000 -1.657743E+002
    .8700     -6.333822E+000 -7.277765E+001  1.862112E+001 -1.254280E+002 -2.688475E+001  5.645625E+001 -5.099844E+000 -1.668853E+002
    .8800     -6.393878E+000 -7.399293E+001  1.874069E+001 -1.262356E+002 -2.669204E+001  5.628023E+001 -5.209579E+000 -1.682480E+002
    .8900     -6.507969E+000 -7.510015E+001  1.882433E+001 -1.271036E+002 -2.659128E+001  5.542678E+001 -5.362588E+000 -1.693465E+002
    .9000     -6.610102E+000 -7.617021E+001  1.891371E+001 -1.279655E+002 -2.644228E+001  5.482553E+001 -5.493872E+000 -1.704125E+002
    .9100     -6.696744E+000 -7.710075E+001  1.900038E+001 -1.286786E+002 -2.632231E+001  5.433585E+001 -5.620324E+000 -1.714832E+002
    .9200     -6.795645E+000 -7.803984E+001  1.906495E+001 -1.294645E+002 -2.622356E+001  5.332510E+001 -5.752325E+000 -1.724057E+002
    .9300     -6.893867E+000 -7.894041E+001  1.912634E+001 -1.301217E+002 -2.614907E+001  5.279610E+001 -5.871358E+000 -1.734005E+002
    .9400     -7.007160E+000 -7.982535E+001  1.918473E+001 -1.308396E+002 -2.603823E+001  5.230737E+001 -5.999157E+000 -1.742806E+002
    .9500     -7.096111E+000 -8.051923E+001  1.923364E+001 -1.315065E+002 -2.591982E+001  5.138538E+001 -6.124825E+000 -1.750339E+002
    .9600     -7.178534E+000 -8.137705E+001  1.929654E+001 -1.322155E+002 -2.584489E+001  5.099921E+001 -6.230721E+000 -1.759341E+002
    .9700     -7.267961E+000 -8.212184E+001  1.934618E+001 -1.328403E+002 -2.577365E+001  5.037631E+001 -6.352145E+000 -1.767660E+002
    .9800     -7.350407E+000 -8.281849E+001  1.939240E+001 -1.333929E+002 -2.570299E+001  4.980368E+001 -6.466155E+000 -1.775306E+002
    .9900     -7.435751E+000 -8.359357E+001  1.943571E+001 -1.339988E+002 -2.566758E+001  4.899289E+001 -6.577064E+000 -1.782218E+002
   1.0000     -7.531883E+000 -8.430013E+001  1.946812E+001 -1.345884E+002 -2.558738E+001  4.852871E+001 -6.686073E+000 -1.789719E+002
   1.1000     -8.365932E+000 -9.038761E+001  1.978224E+001 -1.396058E+002 -2.509944E+001  4.339877E+001 -7.722027E+000  1.747816E+002
   1.2000     -9.106940E+000 -9.538733E+001  1.997936E+001 -1.437634E+002 -2.473799E+001  3.924438E+001 -8.651424E+000  1.700698E+002
   1.3000     -9.802124E+000 -9.970640E+001  2.012839E+001 -1.470477E+002 -2.451227E+001  3.594867E+001 -9.489159E+000  1.665213E+002
   1.4000     -1.040671E+001 -1.035619E+002  2.022050E+001 -1.499007E+002 -2.436511E+001  3.291742E+001 -1.023181E+001  1.637002E+002
   1.5000     -1.096660E+001 -1.069597E+002  2.028683E+001 -1.522422E+002 -2.426926E+001  3.026059E+001 -1.090323E+001  1.617596E+002
   1.6000     -1.150566E+001 -1.102420E+002  2.033778E+001 -1.544455E+002 -2.417991E+001  2.816332E+001 -1.151555E+001  1.602501E+002
   1.7000     -1.195488E+001 -1.129948E+002  2.037502E+001 -1.561105E+002 -2.410768E+001  2.602985E+001 -1.203648E+001  1.590957E+002
   1.8000     -1.233718E+001 -1.152779E+002  2.039724E+001 -1.577946E+002 -2.405085E+001  2.479465E+001 -1.257170E+001  1.583441E+002
   1.9000     -1.284465E+001 -1.170649E+002  2.043997E+001 -1.591576E+002 -2.401807E+001  2.332180E+001 -1.301834E+001  1.575948E+002
   2.0000     -1.311871E+001 -1.195482E+002  2.043428E+001 -1.604499E+002 -2.400865E+001  2.172374E+001 -1.340107E+001  1.574417E+002
   2.1000     -1.347122E+001 -1.214223E+002  2.044581E+001 -1.615506E+002 -2.394293E+001  2.069198E+001 -1.374871E+001  1.573704E+002
   2.2000     -1.384272E+001 -1.234016E+002  2.045509E+001 -1.625512E+002 -2.395293E+001  1.971779E+001 -1.406952E+001  1.571878E+002
   2.3000     -1.404306E+001 -1.250057E+002  2.046366E+001 -1.634992E+002 -2.392600E+001  1.874180E+001 -1.432531E+001  1.572443E+002
   2.4000     -1.433187E+001 -1.266351E+002  2.047303E+001 -1.643121E+002 -2.390606E+001  1.777593E+001 -1.457042E+001  1.570798E+002
   2.5000     -1.452895E+001 -1.282353E+002  2.046957E+001 -1.650634E+002 -2.391301E+001  1.710300E+001 -1.482941E+001  1.567475E+002
   2.6000     -1.478149E+001 -1.300663E+002  2.047287E+001 -1.657405E+002 -2.390380E+001  1.642867E+001 -1.505770E+001  1.573179E+002
   2.7000     -1.493090E+001 -1.303265E+002  2.047505E+001 -1.664141E+002 -2.389214E+001  1.566104E+001 -1.520818E+001  1.575884E+002
   2.8000     -1.513793E+001 -1.324022E+002  2.047148E+001 -1.670248E+002 -2.389377E+001  1.501347E+001 -1.537482E+001  1.576379E+002
   2.9000     -1.532648E+001 -1.335251E+002  2.047353E+001 -1.676029E+002 -2.387790E+001  1.448795E+001 -1.551593E+001  1.578872E+002
   3.0000     -1.548657E+001 -1.347539E+002  2.047565E+001 -1.681035E+002 -2.387453E+001  1.388105E+001 -1.567717E+001  1.581563E+002
   3.1000     -1.563778E+001 -1.360431E+002  2.047166E+001 -1.685685E+002 -2.388083E+001  1.349643E+001 -1.579659E+001  1.582260E+002
   3.2000     -1.577097E+001 -1.372521E+002  2.047272E+001 -1.690085E+002 -2.387881E+001  1.297128E+001 -1.590905E+001  1.584622E+002
   3.3000     -1.589706E+001 -1.382719E+002  2.047388E+001 -1.694846E+002 -2.388794E+001  1.253314E+001 -1.600628E+001  1.584521E+002
   3.4000     -1.602903E+001 -1.390801E+002  2.047279E+001 -1.698914E+002 -2.385270E+001  1.219926E+001 -1.612305E+001  1.586276E+002
   3.5000     -1.613507E+001 -1.400330E+002  2.047797E+001 -1.702521E+002 -2.387340E+001  1.187482E+001 -1.626669E+001  1.585805E+002
   3.6000     -1.625552E+001 -1.410998E+002  2.047560E+001 -1.706045E+002 -2.385699E+001  1.133095E+001 -1.633736E+001  1.588093E+002
   3.7000     -1.634811E+001 -1.418198E+002  2.046374E+001 -1.709900E+002 -2.386072E+001  1.104040E+001 -1.631169E+001  1.595306E+002
   3.8000     -1.643360E+001 -1.429648E+002  2.046589E+001 -1.712971E+002 -2.383522E+001  1.088373E+001 -1.652908E+001  1.590387E+002
   3.9000     -1.653047E+001 -1.437826E+002  2.046978E+001 -1.715451E+002 -2.386250E+001  1.058603E+001 -1.657724E+001  1.594322E+002
   4.0000     -1.664040E+001 -1.447032E+002  2.047536E+001 -1.718942E+002 -2.383786E+001  1.027430E+001 -1.666611E+001  1.596189E+002
   4.1000     -1.674360E+001 -1.457103E+002  2.046136E+001 -1.722099E+002 -2.385651E+001  9.937859E+000 -1.681147E+001  1.602391E+002
   4.2000     -1.679933E+001 -1.455578E+002  2.046586E+001 -1.723364E+002 -2.383679E+001  9.728906E+000 -1.669697E+001  1.598076E+002
   4.3000     -1.680730E+001 -1.465293E+002  2.046987E+001 -1.726386E+002 -2.383227E+001  9.650024E+000 -1.680917E+001  1.597699E+002
   4.4000     -1.686489E+001 -1.475025E+002  2.047057E+001 -1.728913E+002 -2.383646E+001  9.297305E+000 -1.686614E+001  1.601739E+002
   4.5000     -1.693231E+001 -1.480787E+002  2.047251E+001 -1.731508E+002 -2.382647E+001  9.126316E+000 -1.693422E+001  1.602109E+002
   4.6000     -1.702978E+001 -1.486971E+002  2.047846E+001 -1.734027E+002 -2.380328E+001  8.787475E+000 -1.698916E+001  1.604100E+002
   4.7000     -1.705983E+001 -1.496353E+002  2.047681E+001 -1.736498E+002 -2.381389E+001  8.486834E+000 -1.707248E+001  1.604769E+002
   4.8000     -1.716607E+001 -1.508392E+002  2.047284E+001 -1.739613E+002 -2.382047E+001  8.258208E+000 -1.716244E+001  1.613487E+002
   4.9000     -1.717285E+001 -1.498228E+002  2.046071E+001 -1.739111E+002 -2.383260E+001  8.290536E+000 -1.700345E+001  1.602188E+002
   5.0000     -1.718891E+001 -1.509816E+002  2.046649E+001 -1.742055E+002 -2.382561E+001  7.922395E+000 -1.709253E+001  1.605266E+002
   5.1000     -1.723525E+001 -1.513156E+002  2.047090E+001 -1.743745E+002 -2.381918E+001  7.911714E+000 -1.714322E+001  1.606279E+002
   5.2000     -1.726277E+001 -1.519662E+002  2.047582E+001 -1.746061E+002 -2.379261E+001  7.710010E+000 -1.719563E+001  1.605987E+002
   5.3000     -1.730364E+001 -1.526037E+002  2.047428E+001 -1.747416E+002 -2.381919E+001  7.454067E+000 -1.725566E+001  1.607702E+002
   5.4000     -1.730017E+001 -1.530158E+002  2.047342E+001 -1.749347E+002 -2.380060E+001  7.394362E+000 -1.728328E+001  1.607192E+002
   5.5000     -1.738640E+001 -1.534088E+002  2.047579E+001 -1.750929E+002 -2.380307E+001  7.237350E+000 -1.731451E+001  1.606676E+002
   5.6000     -1.737364E+001 -1.542775E+002  2.047655E+001 -1.752566E+002 -2.379217E+001  7.065036E+000 -1.740355E+001  1.604386E+002
   5.7000     -1.743315E+001 -1.545150E+002  2.047721E+001 -1.754401E+002 -2.380763E+001  7.056911E+000 -1.740922E+001  1.606136E+002
   5.8000     -1.743735E+001 -1.551608E+002  2.047276E+001 -1.755635E+002 -2.378302E+001  6.746312E+000 -1.744913E+001  1.609409E+002
   5.9000     -1.746338E+001 -1.556166E+002  2.047608E+001 -1.757211E+002 -2.379966E+001  6.836416E+000 -1.742805E+001  1.608138E+002
   6.0000     -1.745351E+001 -1.561474E+002  2.047381E+001 -1.758791E+002 -2.380656E+001  6.597520E+000 -1.748385E+001  1.608361E+002
   6.1000     -1.748849E+001 -1.565287E+002  2.047187E+001 -1.759953E+002 -2.380368E+001  6.445205E+000 -1.752125E+001  1.606318E+002
   6.2000     -1.753286E+001 -1.568665E+002  2.048180E+001 -1.761722E+002 -2.379424E+001  6.336557E+000 -1.757889E+001  1.609197E+002
   6.3000     -1.753808E+001 -1.574293E+002  2.047941E+001 -1.763134E+002 -2.378293E+001  6.256496E+000 -1.760692E+001  1.609977E+002
   6.4000     -1.754379E+001 -1.577363E+002  2.048047E+001 -1.764538E+002 -2.379539E+001  5.971068E+000 -1.762949E+001  1.609990E+002
   6.5000     -1.756437E+001 -1.581624E+002  2.047913E+001 -1.765849E+002 -2.378350E+001  6.003859E+000 -1.765959E+001  1.611346E+002
   6.6000     -1.760021E+001 -1.585394E+002  2.048153E+001 -1.767238E+002 -2.377981E+001  5.864293E+000 -1.768628E+001  1.609860E+002
   6.7000     -1.761158E+001 -1.588834E+002  2.048340E+001 -1.768735E+002 -2.379542E+001  5.908766E+000 -1.770500E+001  1.611716E+002
   6.8000     -1.761958E+001 -1.593383E+002  2.048063E+001 -1.769674E+002 -2.379375E+001  5.550862E+000 -1.773578E+001  1.611225E+002
   6.9000     -1.764674E+001 -1.596036E+002  2.048085E+001 -1.771137E+002 -2.378285E+001  5.582911E+000 -1.774925E+001  1.612434E+002
   7.0000     -1.765754E+001 -1.600546E+002  2.048120E+001 -1.772420E+002 -2.375550E+001  5.433660E+000 -1.778481E+001  1.609942E+002
   7.1000     -1.768475E+001 -1.603465E+002  2.048260E+001 -1.773570E+002 -2.376418E+001  5.340965E+000 -1.780136E+001  1.611005E+002
   7.2000     -1.769061E+001 -1.608186E+002  2.047953E+001 -1.774553E+002 -2.378891E+001  5.204452E+000 -1.785169E+001  1.613795E+002
   7.3000     -1.770466E+001 -1.611567E+002  2.048199E+001 -1.775837E+002 -2.375871E+001  5.130004E+000 -1.785983E+001  1.612064E+002
   7.4000     -1.769821E+001 -1.612586E+002  2.048092E+001 -1.777163E+002 -2.378847E+001  5.124194E+000 -1.787119E+001  1.611487E+002
   7.5000     -1.775266E+001 -1.614553E+002  2.048101E+001 -1.778097E+002 -2.377181E+001  5.052861E+000 -1.787682E+001  1.614991E+002
   7.6000     -1.774669E+001 -1.620338E+002  2.048543E+001 -1.779139E+002 -2.377540E+001  4.935433E+000 -1.791689E+001  1.613056E+002
   7.7000     -1.778569E+001 -1.624033E+002  2.048467E+001 -1.779826E+002 -2.377132E+001  4.918690E+000 -1.792336E+001  1.615325E+002
   7.8000     -1.780637E+001 -1.626695E+002  2.047906E+001 -1.780879E+002 -2.375500E+001  4.876609E+000 -1.793266E+001  1.611519E+002
   7.9000     -1.778326E+001 -1.630217E+002  2.048082E+001 -1.781656E+002 -2.376754E+001  4.727612E+000 -1.793863E+001  1.613853E+002
   8.0000     -1.779094E+001 -1.632203E+002  2.048225E+001 -1.782853E+002 -2.377057E+001  4.686664E+000 -1.795508E+001  1.613086E+002
   8.1000     -1.781625E+001 -1.635888E+002  2.048358E+001 -1.783711E+002 -2.376277E+001  4.575933E+000 -1.797938E+001  1.611718E+002
   8.2000     -1.783171E+001 -1.638914E+002  2.048479E+001 -1.784719E+002 -2.375907E+001  4.574361E+000 -1.795353E+001  1.612758E+002
   8.3000     -1.783755E+001 -1.642210E+002  2.048557E+001 -1.785868E+002 -2.376186E+001  4.370646E+000 -1.799087E+001  1.612932E+002
