!Mini-Circuits Lab.;
!S-parameters;
!Model: AMP-75+;  Unit 1;
!Run: MN99030;  Lot: N/A;  Date Code: 1032; Vcc=15V; Icc=26.65mA; 
!Fixture: 90-0-16-01;  S/N:72896;  Cal.Due: 12/17/2011;
!Connection: Port 1 to Pin 2; Port 2 to Pin 4; Pin 1 - DC Supply; Pin 3 - grounded; Port extension done on both ports.
!Tested with PNA-L Network Analyzer N5230A, S/N: 67766; Cal.Due: 09/22/2012. 
# MHZ S DB R 50
!Frequency        S11 dB  S11 DEG   S21 dB  S21 DEG   S12 dB  S12 DEG   S22 dB  S22 DEG
    .3000     -1.341550E+001 -1.572152E+001  1.297736E+001 -1.494324E+002 -2.994717E+001  4.083524E+001 -2.829223E+000 -7.460332E+001
    .3100     -1.253490E+001 -9.990873E+000  1.259514E+001 -1.517238E+002 -2.973415E+001  3.980079E+001 -2.817468E+000 -7.602748E+001
    .3200     -1.163869E+001 -6.390432E+000  1.216581E+001 -1.535743E+002 -3.029468E+001  3.635487E+001 -2.788892E+000 -7.788546E+001
    .3300     -1.076494E+001 -4.498715E+000  1.166220E+001 -1.549799E+002 -3.060181E+001  3.867276E+001 -2.804986E+000 -7.948012E+001
    .3400     -9.977997E+000 -3.773733E+000  1.114060E+001 -1.559244E+002 -3.061937E+001  3.385816E+001 -2.730968E+000 -8.126333E+001
    .3500     -9.262320E+000 -4.135586E+000  1.058967E+001 -1.562095E+002 -3.076580E+001  3.212432E+001 -2.706717E+000 -8.285494E+001
    .3600     -8.596069E+000 -4.603312E+000  1.000253E+001 -1.557530E+002 -3.104865E+001  2.990134E+001 -2.656996E+000 -8.473835E+001
    .3700     -8.049795E+000 -5.654160E+000  9.395047E+000 -1.545712E+002 -3.141383E+001  2.936964E+001 -2.619223E+000 -8.661593E+001
    .3800     -7.566889E+000 -6.739657E+000  8.759047E+000 -1.528033E+002 -3.181133E+001  3.131167E+001 -2.603841E+000 -8.831333E+001
    .3900     -7.107286E+000 -8.353862E+000  8.151630E+000 -1.497896E+002 -3.173331E+001  2.861283E+001 -2.546905E+000 -9.022707E+001
    .4000     -6.725687E+000 -9.742264E+000  7.616704E+000 -1.461602E+002 -3.230841E+001  3.002140E+001 -2.523886E+000 -9.208423E+001
    .4100     -6.349957E+000 -1.149901E+001  7.133471E+000 -1.408886E+002 -3.253667E+001  2.900922E+001 -2.475188E+000 -9.399982E+001
    .4200     -6.029531E+000 -1.338561E+001  6.899123E+000 -1.351342E+002 -3.288596E+001  2.825734E+001 -2.441034E+000 -9.601707E+001
    .4300     -5.747252E+000 -1.524182E+001  6.831828E+000 -1.288549E+002 -3.317772E+001  3.098943E+001 -2.410490E+000 -9.800921E+001
    .4400     -5.490432E+000 -1.729906E+001  6.986642E+000 -1.223150E+002 -3.348712E+001  3.227978E+001 -2.373601E+000 -1.000736E+002
    .4500     -5.284040E+000 -1.945917E+001  7.434195E+000 -1.163996E+002 -3.382425E+001  3.396027E+001 -2.362593E+000 -1.021396E+002
    .4600     -5.166182E+000 -2.131277E+001  7.933281E+000 -1.125751E+002 -3.407551E+001  3.552907E+001 -2.368001E+000 -1.041396E+002
    .4700     -4.955902E+000 -2.333550E+001  8.470620E+000 -1.079201E+002 -3.440283E+001  3.773746E+001 -2.344010E+000 -1.062145E+002
    .4800     -4.808273E+000 -2.536583E+001  9.121945E+000 -1.048214E+002 -3.455249E+001  3.974089E+001 -2.341872E+000 -1.083222E+002
    .4900     -4.693270E+000 -2.759679E+001  9.849521E+000 -1.024850E+002 -3.464287E+001  4.406372E+001 -2.343740E+000 -1.104224E+002
    .5000     -4.619154E+000 -2.962855E+001  1.050461E+001 -1.012368E+002 -3.462305E+001  4.703967E+001 -2.357577E+000 -1.126291E+002
    .5100     -4.519305E+000 -3.109458E+001  1.099496E+001 -1.000131E+002 -3.445674E+001  4.941833E+001 -2.355438E+000 -1.144997E+002
    .5200     -4.434784E+000 -3.341325E+001  1.168230E+001 -9.920377E+001 -3.442363E+001  5.333873E+001 -2.380124E+000 -1.167512E+002
    .5300     -4.420864E+000 -3.539938E+001  1.225107E+001 -9.925725E+001 -3.417971E+001  5.703662E+001 -2.426604E+000 -1.188974E+002
    .5400     -4.370936E+000 -3.732586E+001  1.277444E+001 -9.918955E+001 -3.387377E+001  5.966730E+001 -2.451809E+000 -1.209942E+002
    .5500     -4.355686E+000 -3.932677E+001  1.330333E+001 -9.969469E+001 -3.348272E+001  6.171351E+001 -2.507148E+000 -1.230728E+002
    .5600     -4.327240E+000 -4.108586E+001  1.374408E+001 -1.000029E+002 -3.314537E+001  6.319325E+001 -2.547617E+000 -1.251058E+002
    .5700     -4.320568E+000 -4.310239E+001  1.420848E+001 -1.006831E+002 -3.279242E+001  6.508226E+001 -2.604857E+000 -1.272495E+002
    .5800     -4.345436E+000 -4.499423E+001  1.462843E+001 -1.016423E+002 -3.239324E+001  6.629177E+001 -2.682931E+000 -1.292192E+002
    .5900     -4.368611E+000 -4.701593E+001  1.502958E+001 -1.026414E+002 -3.190021E+001  6.752427E+001 -2.764257E+000 -1.313181E+002
    .6000     -4.415859E+000 -4.863953E+001  1.534493E+001 -1.036598E+002 -3.154041E+001  6.854324E+001 -2.845464E+000 -1.332141E+002
    .6100     -4.449927E+000 -5.044081E+001  1.569576E+001 -1.047606E+002 -3.109103E+001  6.829507E+001 -2.947769E+000 -1.351655E+002
    .6200     -4.511128E+000 -5.232525E+001  1.599875E+001 -1.059362E+002 -3.069600E+001  6.911223E+001 -3.047359E+000 -1.371519E+002
    .6300     -4.579164E+000 -5.432880E+001  1.631842E+001 -1.072751E+002 -3.028834E+001  6.928674E+001 -3.158233E+000 -1.391783E+002
    .6400     -4.675226E+000 -5.618481E+001  1.659246E+001 -1.087459E+002 -2.993267E+001  6.858820E+001 -3.300853E+000 -1.410473E+002
    .6500     -4.786620E+000 -5.770722E+001  1.683256E+001 -1.100643E+002 -2.956974E+001  6.751944E+001 -3.439031E+000 -1.426749E+002
    .6600     -4.895760E+000 -5.979431E+001  1.710383E+001 -1.115569E+002 -2.911390E+001  6.738824E+001 -3.607033E+000 -1.446881E+002
    .6700     -5.007147E+000 -6.171648E+001  1.734969E+001 -1.129992E+002 -2.890767E+001  6.655617E+001 -3.763203E+000 -1.464458E+002
    .6800     -5.275455E+000 -6.468427E+001  1.767320E+001 -1.155000E+002 -2.845241E+001  6.513451E+001 -4.064774E+000 -1.485040E+002
    .6900     -6.518631E+000 -6.695110E+001  1.766628E+001 -1.225089E+002 -2.787477E+001  5.793810E+001 -4.888054E+000 -1.477601E+002
    .7000     -5.933610E+000 -6.151490E+001  1.717724E+001 -1.186141E+002 -2.876287E+001  6.103361E+001 -4.176358E+000 -1.472513E+002
    .7100     -5.478259E+000 -6.431499E+001  1.765599E+001 -1.170180E+002 -2.835947E+001  6.350564E+001 -4.130244E+000 -1.507823E+002
    .7200     -5.896111E+000 -6.879269E+001  1.808063E+001 -1.205289E+002 -2.764139E+001  6.059566E+001 -4.677968E+000 -1.531315E+002
    .7300     -6.845137E+000 -7.138348E+001  1.812714E+001 -1.256192E+002 -2.747661E+001  5.499701E+001 -5.327285E+000 -1.515191E+002
    .7400     -7.238592E+000 -4.773446E+001  1.538555E+001 -1.256046E+002 -3.018914E+001  4.660775E+001 -4.140377E+000 -1.395252E+002
    .7500     -5.550024E+000 -5.812706E+001  1.693848E+001 -1.165229E+002 -2.920933E+001  6.250899E+001 -3.738090E+000 -1.503669E+002
    .7600     -5.976137E+000 -6.085301E+001  1.720324E+001 -1.196886E+002 -2.849117E+001  5.887790E+001 -4.317906E+000 -1.523649E+002
    .7700     -5.665424E+000 -6.581892E+001  1.790284E+001 -1.193828E+002 -2.788786E+001  6.203460E+001 -4.281770E+000 -1.567979E+002
    .7800     -6.005239E+000 -6.943324E+001  1.823942E+001 -1.222094E+002 -2.739079E+001  5.952616E+001 -4.730104E+000 -1.588155E+002
    .7900     -6.777308E+000 -6.922910E+001  1.804955E+001 -1.258316E+002 -2.741272E+001  5.549031E+001 -5.165735E+000 -1.573158E+002
    .8000     -6.400229E+000 -6.281564E+001  1.743863E+001 -1.228843E+002 -2.821043E+001  5.702802E+001 -4.496475E+000 -1.552966E+002
    .8100     -6.113550E+000 -6.650539E+001  1.792836E+001 -1.224102E+002 -2.777731E+001  5.912947E+001 -4.569338E+000 -1.592656E+002
    .8200     -5.894945E+000 -6.782611E+001  1.815549E+001 -1.218268E+002 -2.751901E+001  6.012662E+001 -4.534277E+000 -1.614564E+002
    .8300     -5.921608E+000 -7.058576E+001  1.845804E+001 -1.228256E+002 -2.712605E+001  5.971027E+001 -4.718734E+000 -1.638898E+002
    .8400     -6.086986E+000 -7.247323E+001  1.861695E+001 -1.242494E+002 -2.691860E+001  5.828015E+001 -4.950300E+000 -1.653244E+002
    .8500     -6.126907E+000 -7.353909E+001  1.871434E+001 -1.249116E+002 -2.680275E+001  5.769894E+001 -5.044474E+000 -1.665144E+002
    .8600     -6.308998E+000 -7.472876E+001  1.880261E+001 -1.260661E+002 -2.662346E+001  5.649470E+001 -5.247703E+000 -1.675208E+002
    .8700     -6.321046E+000 -7.562978E+001  1.889650E+001 -1.264818E+002 -2.654153E+001  5.636629E+001 -5.306948E+000 -1.687467E+002
    .8800     -6.423676E+000 -7.671217E+001  1.898724E+001 -1.274123E+002 -2.637976E+001  5.568140E+001 -5.453473E+000 -1.698991E+002
    .8900     -6.508451E+000 -7.771894E+001  1.906094E+001 -1.281576E+002 -2.625465E+001  5.481491E+001 -5.592680E+000 -1.709156E+002
    .9000     -6.614163E+000 -7.861804E+001  1.913158E+001 -1.289750E+002 -2.613917E+001  5.418061E+001 -5.710575E+000 -1.719116E+002
    .9100     -6.712685E+000 -7.953605E+001  1.920970E+001 -1.297341E+002 -2.603839E+001  5.358743E+001 -5.843376E+000 -1.728612E+002
    .9200     -6.821620E+000 -8.042321E+001  1.926075E+001 -1.304876E+002 -2.593454E+001  5.296509E+001 -5.979399E+000 -1.737911E+002
    .9300     -6.919047E+000 -8.118639E+001  1.931598E+001 -1.311166E+002 -2.585097E+001  5.240123E+001 -6.098405E+000 -1.747548E+002
    .9400     -7.016474E+000 -8.203639E+001  1.936473E+001 -1.317733E+002 -2.576764E+001  5.164724E+001 -6.220212E+000 -1.755301E+002
    .9500     -7.101327E+000 -8.282005E+001  1.941787E+001 -1.324257E+002 -2.572017E+001  5.093674E+001 -6.337546E+000 -1.763284E+002
    .9600     -7.195428E+000 -8.343816E+001  1.945737E+001 -1.331057E+002 -2.560838E+001  5.041954E+001 -6.456013E+000 -1.770990E+002
    .9700     -7.278717E+000 -8.417816E+001  1.950668E+001 -1.337030E+002 -2.554992E+001  4.978462E+001 -6.578703E+000 -1.778643E+002
    .9800     -7.373429E+000 -8.485229E+001  1.954380E+001 -1.342666E+002 -2.549467E+001  4.917641E+001 -6.686550E+000 -1.785820E+002
    .9900     -7.455687E+000 -8.555424E+001  1.957981E+001 -1.348414E+002 -2.543306E+001  4.859132E+001 -6.803329E+000 -1.792936E+002
   1.0000     -7.550578E+000 -8.621375E+001  1.960977E+001 -1.353905E+002 -2.536353E+001  4.814544E+001 -6.909442E+000  1.799792E+002
   1.1000     -8.384011E+000 -9.212524E+001  1.989240E+001 -1.403102E+002 -2.495823E+001  4.306251E+001 -7.939257E+000  1.740851E+002
   1.2000     -9.100176E+000 -9.701516E+001  2.007166E+001 -1.443640E+002 -2.463634E+001  3.858391E+001 -8.862432E+000  1.696929E+002
   1.3000     -9.789672E+000 -1.011941E+002  2.020722E+001 -1.475520E+002 -2.441899E+001  3.549440E+001 -9.677031E+000  1.661942E+002
   1.4000     -1.038058E+001 -1.049945E+002  2.029347E+001 -1.503411E+002 -2.427968E+001  3.260294E+001 -1.040906E+001  1.635424E+002
   1.5000     -1.093352E+001 -1.083053E+002  2.035625E+001 -1.526382E+002 -2.416988E+001  2.998909E+001 -1.108363E+001  1.617093E+002
   1.6000     -1.146896E+001 -1.115704E+002  2.040138E+001 -1.548078E+002 -2.410028E+001  2.803258E+001 -1.168796E+001  1.601909E+002
   1.7000     -1.190452E+001 -1.143263E+002  2.043727E+001 -1.564491E+002 -2.402456E+001  2.616163E+001 -1.221295E+001  1.590878E+002
   1.8000     -1.227111E+001 -1.166252E+002  2.045565E+001 -1.580700E+002 -2.400448E+001  2.410274E+001 -1.270867E+001  1.585234E+002
   1.9000     -1.272425E+001 -1.182400E+002  2.049921E+001 -1.594459E+002 -2.391892E+001  2.277915E+001 -1.316810E+001  1.579130E+002
   2.0000     -1.302689E+001 -1.208964E+002  2.049275E+001 -1.606989E+002 -2.396935E+001  2.091687E+001 -1.350530E+001  1.577412E+002
   2.1000     -1.337447E+001 -1.226868E+002  2.050460E+001 -1.617897E+002 -2.390302E+001  2.041627E+001 -1.387921E+001  1.574881E+002
   2.2000     -1.371455E+001 -1.246834E+002  2.051228E+001 -1.627658E+002 -2.391610E+001  1.916694E+001 -1.418581E+001  1.573464E+002
   2.3000     -1.393531E+001 -1.263972E+002  2.051853E+001 -1.637464E+002 -2.389082E+001  1.814154E+001 -1.446453E+001  1.575992E+002
   2.4000     -1.423087E+001 -1.279791E+002  2.052606E+001 -1.645439E+002 -2.383713E+001  1.767317E+001 -1.471821E+001  1.574471E+002
   2.5000     -1.441605E+001 -1.296813E+002  2.052361E+001 -1.652961E+002 -2.388585E+001  1.689239E+001 -1.496983E+001  1.571257E+002
   2.6000     -1.466305E+001 -1.314002E+002  2.052423E+001 -1.659545E+002 -2.383638E+001  1.620072E+001 -1.519364E+001  1.577918E+002
   2.7000     -1.482881E+001 -1.316674E+002  2.052353E+001 -1.666362E+002 -2.384631E+001  1.538178E+001 -1.533333E+001  1.581843E+002
   2.8000     -1.502147E+001 -1.337211E+002  2.052081E+001 -1.672315E+002 -2.384070E+001  1.486985E+001 -1.551042E+001  1.582330E+002
   2.9000     -1.520971E+001 -1.348513E+002  2.052168E+001 -1.678264E+002 -2.380890E+001  1.437258E+001 -1.565046E+001  1.585284E+002
   3.0000     -1.535952E+001 -1.361178E+002  2.052560E+001 -1.682910E+002 -2.381101E+001  1.379132E+001 -1.580321E+001  1.588265E+002
   3.1000     -1.550780E+001 -1.373523E+002  2.051910E+001 -1.687865E+002 -2.381088E+001  1.331692E+001 -1.591358E+001  1.590143E+002
   3.2000     -1.564003E+001 -1.385073E+002  2.052008E+001 -1.692171E+002 -2.380354E+001  1.271061E+001 -1.603500E+001  1.593433E+002
   3.3000     -1.577433E+001 -1.394306E+002  2.052056E+001 -1.696701E+002 -2.380376E+001  1.250165E+001 -1.611862E+001  1.593314E+002
   3.4000     -1.589288E+001 -1.403142E+002  2.051933E+001 -1.700691E+002 -2.381221E+001  1.193501E+001 -1.622087E+001  1.595254E+002
   3.5000     -1.600645E+001 -1.412494E+002  2.052250E+001 -1.704395E+002 -2.380032E+001  1.168161E+001 -1.637132E+001  1.593785E+002
   3.6000     -1.611435E+001 -1.423439E+002  2.051950E+001 -1.708025E+002 -2.380299E+001  1.119740E+001 -1.644621E+001  1.596754E+002
   3.7000     -1.619003E+001 -1.431375E+002  2.051050E+001 -1.711726E+002 -2.380584E+001  1.093604E+001 -1.642795E+001  1.603193E+002
   3.8000     -1.629122E+001 -1.442310E+002  2.050994E+001 -1.714749E+002 -2.379715E+001  1.063078E+001 -1.662205E+001  1.599376E+002
   3.9000     -1.638946E+001 -1.450173E+002  2.051122E+001 -1.716993E+002 -2.381142E+001  1.038410E+001 -1.667051E+001  1.606033E+002
   4.0000     -1.652937E+001 -1.460570E+002  2.051404E+001 -1.720842E+002 -2.378554E+001  1.002143E+001 -1.675776E+001  1.608633E+002
   4.1000     -1.666774E+001 -1.470540E+002  2.049740E+001 -1.724617E+002 -2.379119E+001  9.688618E+000 -1.685685E+001  1.617406E+002
   4.2000     -1.663594E+001 -1.468691E+002  2.051287E+001 -1.725311E+002 -2.380125E+001  9.631663E+000 -1.679906E+001  1.608265E+002
   4.3000     -1.666601E+001 -1.477254E+002  2.051175E+001 -1.728197E+002 -2.377944E+001  9.493332E+000 -1.689204E+001  1.608927E+002
   4.4000     -1.672720E+001 -1.484973E+002  2.050917E+001 -1.730524E+002 -2.378450E+001  9.056472E+000 -1.694476E+001  1.612595E+002
   4.5000     -1.679287E+001 -1.492045E+002  2.051111E+001 -1.733017E+002 -2.378624E+001  8.925343E+000 -1.700828E+001  1.613015E+002
   4.6000     -1.687064E+001 -1.498247E+002  2.051987E+001 -1.735586E+002 -2.377455E+001  8.624748E+000 -1.704688E+001  1.616988E+002
   4.7000     -1.691971E+001 -1.507389E+002  2.051466E+001 -1.738141E+002 -2.378076E+001  8.326071E+000 -1.712849E+001  1.616827E+002
   4.8000     -1.715211E+001 -1.518196E+002  2.048824E+001 -1.741752E+002 -2.381243E+001  8.073514E+000 -1.711413E+001  1.633325E+002
   4.9000     -1.701291E+001 -1.510662E+002  2.050217E+001 -1.740808E+002 -2.378085E+001  8.099829E+000 -1.709525E+001  1.614136E+002
   5.0000     -1.705290E+001 -1.519752E+002  2.050401E+001 -1.743415E+002 -2.380881E+001  7.929142E+000 -1.712152E+001  1.617603E+002
   5.1000     -1.708084E+001 -1.524005E+002  2.051105E+001 -1.745315E+002 -2.378953E+001  7.722474E+000 -1.719621E+001  1.618209E+002
   5.2000     -1.711439E+001 -1.529327E+002  2.051327E+001 -1.747370E+002 -2.376730E+001  7.612761E+000 -1.723639E+001  1.618570E+002
   5.3000     -1.714853E+001 -1.536056E+002  2.051245E+001 -1.748779E+002 -2.378045E+001  7.283094E+000 -1.728941E+001  1.620633E+002
   5.4000     -1.714680E+001 -1.540330E+002  2.051123E+001 -1.750776E+002 -2.377250E+001  7.257351E+000 -1.732237E+001  1.620186E+002
   5.5000     -1.722619E+001 -1.544551E+002  2.051128E+001 -1.752494E+002 -2.376992E+001  7.051680E+000 -1.734381E+001  1.620043E+002
   5.6000     -1.722160E+001 -1.551802E+002  2.051204E+001 -1.753913E+002 -2.376122E+001  7.042193E+000 -1.742371E+001  1.618531E+002
   5.7000     -1.726328E+001 -1.554736E+002  2.051289E+001 -1.755738E+002 -2.377412E+001  6.793685E+000 -1.742804E+001  1.620391E+002
   5.8000     -1.728478E+001 -1.560081E+002  2.050831E+001 -1.756749E+002 -2.374626E+001  6.863953E+000 -1.748067E+001  1.621686E+002
   5.9000     -1.731449E+001 -1.565048E+002  2.051189E+001 -1.758382E+002 -2.376631E+001  6.483728E+000 -1.743593E+001  1.622184E+002
   6.0000     -1.731699E+001 -1.569716E+002  2.050745E+001 -1.760000E+002 -2.376565E+001  6.505087E+000 -1.750414E+001  1.621862E+002
   6.1000     -1.733582E+001 -1.574841E+002  2.050510E+001 -1.761157E+002 -2.375195E+001  6.304415E+000 -1.753658E+001  1.620211E+002
   6.2000     -1.737855E+001 -1.577796E+002  2.051529E+001 -1.762958E+002 -2.374534E+001  6.114547E+000 -1.759097E+001  1.623365E+002
   6.3000     -1.738236E+001 -1.582045E+002  2.051524E+001 -1.764316E+002 -2.377490E+001  6.134043E+000 -1.759961E+001  1.623898E+002
   6.4000     -1.740305E+001 -1.585440E+002  2.051343E+001 -1.765728E+002 -2.375544E+001  5.955076E+000 -1.762663E+001  1.624600E+002
   6.5000     -1.740520E+001 -1.589787E+002  2.051138E+001 -1.767060E+002 -2.375399E+001  5.758235E+000 -1.765246E+001  1.625445E+002
   6.6000     -1.745022E+001 -1.593754E+002  2.051290E+001 -1.768318E+002 -2.374914E+001  5.704846E+000 -1.767483E+001  1.624749E+002
   6.7000     -1.745848E+001 -1.596741E+002  2.051667E+001 -1.769707E+002 -2.373378E+001  5.698107E+000 -1.768781E+001  1.626012E+002
   6.8000     -1.744922E+001 -1.600588E+002  2.051475E+001 -1.770854E+002 -2.376312E+001  5.554548E+000 -1.772055E+001  1.625250E+002
   6.9000     -1.750367E+001 -1.603970E+002  2.051337E+001 -1.772157E+002 -2.375377E+001  5.487558E+000 -1.772370E+001  1.627077E+002
   7.0000     -1.751611E+001 -1.608690E+002  2.051238E+001 -1.773450E+002 -2.373759E+001  5.351703E+000 -1.775805E+001  1.623836E+002
   7.1000     -1.753411E+001 -1.610377E+002  2.051360E+001 -1.774584E+002 -2.375457E+001  5.133222E+000 -1.777377E+001  1.625158E+002
   7.2000     -1.754152E+001 -1.615039E+002  2.051117E+001 -1.775556E+002 -2.373534E+001  5.052547E+000 -1.782575E+001  1.628363E+002
   7.3000     -1.756651E+001 -1.618651E+002  2.051144E+001 -1.776725E+002 -2.375553E+001  5.033329E+000 -1.782654E+001  1.627132E+002
   7.4000     -1.755205E+001 -1.618898E+002  2.051059E+001 -1.778046E+002 -2.375294E+001  4.835927E+000 -1.784583E+001  1.627564E+002
   7.5000     -1.758927E+001 -1.622090E+002  2.051334E+001 -1.779096E+002 -2.372796E+001  4.884321E+000 -1.785916E+001  1.629919E+002
   7.6000     -1.759872E+001 -1.626677E+002  2.051506E+001 -1.780104E+002 -2.373878E+001  4.835340E+000 -1.787706E+001  1.627956E+002
   7.7000     -1.764814E+001 -1.630709E+002  2.051189E+001 -1.780769E+002 -2.374701E+001  4.816624E+000 -1.789552E+001  1.630585E+002
   7.8000     -1.764268E+001 -1.633111E+002  2.051419E+001 -1.781765E+002 -2.372406E+001  4.657384E+000 -1.790612E+001  1.625770E+002
   7.9000     -1.763484E+001 -1.637331E+002  2.050976E+001 -1.782625E+002 -2.373263E+001  4.681067E+000 -1.790831E+001  1.628520E+002
   8.0000     -1.763556E+001 -1.638272E+002  2.051152E+001 -1.783749E+002 -2.373621E+001  4.496226E+000 -1.790134E+001  1.628372E+002
   8.1000     -1.765249E+001 -1.641763E+002  2.051457E+001 -1.784623E+002 -2.372327E+001  4.486479E+000 -1.792978E+001  1.626159E+002
   8.2000     -1.767839E+001 -1.645145E+002  2.051487E+001 -1.785632E+002 -2.374826E+001  4.279315E+000 -1.790182E+001  1.628130E+002
   8.3000     -1.769543E+001 -1.648675E+002  2.051439E+001 -1.786714E+002 -2.373483E+001  4.302621E+000 -1.792916E+001  1.628501E+002
