! Mini-Circuits
! S2P DATA File Format
! Type: BAND PASS FILTER
! Model: BBP-20R5+
! All S Parameters are in dB deg format
! TEST CONDITIONS: INPUT POWER = 0 dBm @ Temperature = +25deg C
# MHz S dB R 50
!Frequency        S11 dB  S11 DEG   S21 dB  S21 DEG   S12 dB  S12 DEG   S22 dB  S22 DEG
    .5000      4.723870E-003 -1.889808E+000 -9.977370E+001  1.512575E+002 -1.119693E+002 -1.219698E+002 -1.337608E-003 -1.816275E+000
   1.0000      4.639923E-003 -3.774523E+000 -9.875658E+001  6.054485E+001 -1.026118E+002  4.522816E+001 -1.074841E-003 -3.679191E+000
   1.5000      5.619358E-003 -5.643276E+000 -1.063273E+002  8.273895E+001 -1.004823E+002  1.090127E+002 -3.246761E-004 -5.520536E+000
   2.0000      1.514039E-003 -7.528172E+000 -1.070803E+002 -1.327519E+002 -1.070496E+002  1.194862E+002 -1.511818E-004 -7.375122E+000
   2.5000      3.764162E-003 -9.408547E+000 -1.001425E+002 -6.722795E+001 -1.037322E+002  1.247039E+002 -2.001500E-003 -9.240107E+000
   3.0000      3.284816E-003 -1.132026E+001 -1.012219E+002  8.318638E+000 -1.029436E+002  1.071441E+002 -3.062617E-003 -1.109780E+001
   3.5000      1.711032E-003 -1.323249E+001 -9.950791E+001 -6.187006E+001 -1.044443E+002 -1.193944E+002 -3.464201E-003 -1.297272E+001
   4.0000      2.265215E-003 -1.515405E+001 -1.089345E+002 -1.007425E+002 -1.023301E+002 -1.197752E+002 -2.063552E-003 -1.487328E+001
   4.5000      3.396674E-003 -1.708574E+001 -9.879177E+001  1.065695E+002 -1.035417E+002  7.313805E+001 -5.509344E-004 -1.676304E+001
   5.0000      3.163778E-004 -1.905970E+001 -9.296503E+001 -6.694994E+001 -1.032906E+002 -9.986826E+001 -3.730587E-003 -1.869788E+001
   5.5000      2.007891E-003 -2.104932E+001 -9.352022E+001 -1.109155E+002 -9.977629E+001 -1.189932E+002 -8.871336E-004 -2.064294E+001
   6.0000      1.070785E-003 -2.305000E+001 -9.492293E+001 -1.745560E+002 -9.316504E+001 -1.068720E+002 -4.194963E-003 -2.260646E+001
   6.5000     -3.519052E-004 -2.507769E+001 -9.876803E+001 -1.416126E+002 -9.215341E+001 -9.544462E+001 -2.584198E-003 -2.461208E+001
   7.0000     -1.549098E-003 -2.717500E+001 -1.007570E+002 -1.405087E+002 -8.797750E+001 -1.032311E+002 -6.445578E-003 -2.662993E+001
   7.5000     -2.794268E-003 -2.926435E+001 -9.019652E+001 -1.286808E+002 -9.115958E+001 -1.295681E+002 -6.423524E-003 -2.870931E+001
   8.0000     -2.072135E-003 -3.142665E+001 -8.843875E+001 -1.395273E+002 -8.730009E+001 -1.108559E+002 -7.291478E-003 -3.081469E+001
   8.5000     -4.809993E-003 -3.364016E+001 -8.601066E+001 -1.254270E+002 -8.697846E+001 -1.293217E+002 -1.111452E-002 -3.297517E+001
   9.0000     -4.149268E-003 -3.591022E+001 -8.414217E+001 -1.253565E+002 -8.578838E+001 -1.238037E+002 -1.149577E-002 -3.519223E+001
   9.5000     -8.092688E-003 -3.823744E+001 -8.381133E+001 -1.265916E+002 -8.256919E+001 -1.365312E+002 -1.463651E-002 -3.746122E+001
  10.0000     -1.159277E-002 -4.065198E+001 -8.153028E+001 -1.313350E+002 -8.209588E+001 -1.311170E+002 -1.850421E-002 -3.983068E+001
  10.1000     -1.048985E-002 -4.113526E+001 -8.058091E+001 -1.344852E+002 -8.094866E+001 -1.369460E+002 -1.912368E-002 -4.030285E+001
  10.2000     -1.047461E-002 -4.163718E+001 -8.095525E+001 -1.354887E+002 -8.063300E+001 -1.396252E+002 -1.696083E-002 -4.078506E+001
  10.3000     -1.203673E-002 -4.214173E+001 -8.097718E+001 -1.361051E+002 -8.020155E+001 -1.368083E+002 -1.825921E-002 -4.128662E+001
  10.4000     -1.156257E-002 -4.265226E+001 -8.083471E+001 -1.313433E+002 -7.934416E+001 -1.360891E+002 -1.858792E-002 -4.176428E+001
  10.5000     -1.343479E-002 -4.316346E+001 -7.938677E+001 -1.347348E+002 -8.014194E+001 -1.377978E+002 -2.004546E-002 -4.227399E+001
  10.6000     -1.296485E-002 -4.366236E+001 -7.943047E+001 -1.371102E+002 -7.953967E+001 -1.300150E+002 -2.077462E-002 -4.277297E+001
  10.7000     -1.563534E-002 -4.418495E+001 -7.954207E+001 -1.345234E+002 -7.877580E+001 -1.329681E+002 -2.076848E-002 -4.328460E+001
  10.8000     -1.515357E-002 -4.471118E+001 -7.900965E+001 -1.337129E+002 -7.969563E+001 -1.361341E+002 -2.170393E-002 -4.379197E+001
  10.9000     -1.674356E-002 -4.522915E+001 -7.906828E+001 -1.443712E+002 -7.921252E+001 -1.353306E+002 -2.160634E-002 -4.430843E+001
  11.0000     -1.645863E-002 -4.576322E+001 -7.832583E+001 -1.353739E+002 -7.894374E+001 -1.367296E+002 -2.397982E-002 -4.482662E+001
  11.1000     -1.705078E-002 -4.630728E+001 -7.784940E+001 -1.387223E+002 -7.723610E+001 -1.449773E+002 -2.500352E-002 -4.536128E+001
  11.2000     -1.698392E-002 -4.684487E+001 -7.726939E+001 -1.371413E+002 -7.759167E+001 -1.428520E+002 -2.578354E-002 -4.588301E+001
  11.3000     -1.834711E-002 -4.739262E+001 -7.728835E+001 -1.356332E+002 -7.740771E+001 -1.383732E+002 -2.659388E-002 -4.642986E+001
  11.4000     -1.854199E-002 -4.795075E+001 -7.726436E+001 -1.398865E+002 -7.834523E+001 -1.372772E+002 -2.622911E-002 -4.697099E+001
  11.5000     -2.012829E-002 -4.850580E+001 -7.758695E+001 -1.406985E+002 -7.790652E+001 -1.417980E+002 -2.973449E-002 -4.751494E+001
  11.6000     -2.207084E-002 -4.906524E+001 -7.712910E+001 -1.440308E+002 -7.746749E+001 -1.442054E+002 -2.746243E-002 -4.806929E+001
  11.7000     -2.137526E-002 -4.964322E+001 -7.692632E+001 -1.389300E+002 -7.652540E+001 -1.410766E+002 -2.927896E-002 -4.863081E+001
  11.8000     -2.452981E-002 -5.022726E+001 -7.695693E+001 -1.387318E+002 -7.644550E+001 -1.443313E+002 -3.104666E-002 -4.918749E+001
  11.9000     -2.448678E-002 -5.080307E+001 -7.656000E+001 -1.445294E+002 -7.626350E+001 -1.380176E+002 -3.100534E-002 -4.976529E+001
  12.0000     -2.677779E-002 -5.138855E+001 -7.619498E+001 -1.378516E+002 -7.576616E+001 -1.455547E+002 -3.448574E-002 -5.034920E+001
  12.1000     -2.719421E-002 -5.200367E+001 -7.562035E+001 -1.452070E+002 -7.571047E+001 -1.479756E+002 -3.379591E-002 -5.095717E+001
  12.2000     -2.783719E-002 -5.261116E+001 -7.570519E+001 -1.438300E+002 -7.510636E+001 -1.421172E+002 -3.681436E-002 -5.154258E+001
  12.3000     -2.803774E-002 -5.321881E+001 -7.645603E+001 -1.476758E+002 -7.561694E+001 -1.464562E+002 -3.583833E-002 -5.215263E+001
  12.4000     -3.060667E-002 -5.384177E+001 -7.486576E+001 -1.449523E+002 -7.553952E+001 -1.463890E+002 -3.990669E-002 -5.275647E+001
  12.5000     -3.182446E-002 -5.447979E+001 -7.504639E+001 -1.447597E+002 -7.537566E+001 -1.441644E+002 -4.126563E-002 -5.338755E+001
  12.6000     -3.369309E-002 -5.512104E+001 -7.533932E+001 -1.480469E+002 -7.500972E+001 -1.431887E+002 -4.185947E-002 -5.402638E+001
  12.7000     -3.267260E-002 -5.577027E+001 -7.534219E+001 -1.486026E+002 -7.525715E+001 -1.473890E+002 -4.339325E-002 -5.466418E+001
  12.8000     -3.677815E-002 -5.643844E+001 -7.586909E+001 -1.477043E+002 -7.540845E+001 -1.461902E+002 -4.324835E-002 -5.532088E+001
  12.9000     -3.752116E-002 -5.710308E+001 -7.491579E+001 -1.486743E+002 -7.493204E+001 -1.502214E+002 -4.949839E-002 -5.597524E+001
  13.0000     -3.991150E-002 -5.779287E+001 -7.581269E+001 -1.477260E+002 -7.545293E+001 -1.478799E+002 -4.672679E-002 -5.664000E+001
  13.1000     -4.232332E-002 -5.848122E+001 -7.629266E+001 -1.533320E+002 -7.575441E+001 -1.498190E+002 -5.005793E-002 -5.730830E+001
  13.2000     -4.427754E-002 -5.919151E+001 -7.535778E+001 -1.544726E+002 -7.600330E+001 -1.485802E+002 -5.177554E-002 -5.801892E+001
  13.3000     -4.607472E-002 -5.991471E+001 -7.578211E+001 -1.495600E+002 -7.620395E+001 -1.513667E+002 -5.487656E-002 -5.871922E+001
  13.4000     -4.725638E-002 -6.065046E+001 -7.699454E+001 -1.486940E+002 -7.660407E+001 -1.488739E+002 -5.737596E-002 -5.945961E+001
  13.5000     -5.027228E-002 -6.138279E+001 -7.666769E+001 -1.482159E+002 -7.716518E+001 -1.495182E+002 -5.683475E-002 -6.019617E+001
  13.6000     -5.343753E-002 -6.214579E+001 -7.859458E+001 -1.470239E+002 -7.775854E+001 -1.482854E+002 -6.084736E-002 -6.093581E+001
  13.7000     -5.387182E-002 -6.292315E+001 -7.936854E+001 -1.481488E+002 -7.860279E+001 -1.477745E+002 -6.362922E-002 -6.170794E+001
  13.8000     -5.674788E-002 -6.371136E+001 -8.015565E+001 -1.471117E+002 -8.132426E+001 -1.498689E+002 -6.730814E-002 -6.246860E+001
  13.9000     -5.908309E-002 -6.450979E+001 -8.382667E+001 -1.537409E+002 -8.260499E+001 -1.483788E+002 -6.911583E-002 -6.327249E+001
  14.0000     -6.294276E-002 -6.533543E+001 -8.557952E+001 -1.459170E+002 -8.564253E+001 -1.296492E+002 -7.318763E-002 -6.407622E+001
  14.1000     -6.708017E-002 -6.619950E+001 -9.424528E+001 -8.440649E+001 -9.066333E+001 -9.838284E+001 -7.573373E-002 -6.490502E+001
  14.2000     -6.844299E-002 -6.705026E+001 -8.933247E+001 -3.348293E+001 -8.911288E+001 -2.766632E+001 -7.840323E-002 -6.577688E+001
  14.3000     -6.961311E-002 -6.794019E+001 -8.064796E+001 -5.760035E+000 -8.229825E+001  1.751929E+000 -8.240481E-002 -6.664319E+001
  14.4000     -7.412448E-002 -6.883522E+001 -7.710808E+001  3.471384E+000 -7.824193E+001  7.495934E+000 -8.804456E-002 -6.752583E+001
  14.5000     -7.793812E-002 -6.976849E+001 -7.437630E+001  6.390522E+000 -7.406747E+001  4.244333E+000 -8.858101E-002 -6.844619E+001
  14.6000     -8.312102E-002 -7.071753E+001 -7.151243E+001  6.816384E+000 -7.212660E+001  6.550658E+000 -9.568118E-002 -6.938833E+001
  14.7000     -8.814456E-002 -7.169016E+001 -6.905471E+001  8.135336E+000 -6.936907E+001  5.795638E+000 -9.918918E-002 -7.035104E+001
  14.8000     -9.029877E-002 -7.269849E+001 -6.677541E+001  7.477244E+000 -6.699840E+001  7.691127E+000 -1.065523E-001 -7.134732E+001
  14.9000     -9.757803E-002 -7.372260E+001 -6.490569E+001  5.120742E+000 -6.484962E+001  6.929406E+000 -1.088265E-001 -7.236408E+001
  15.0000     -9.947556E-002 -7.479842E+001 -6.287017E+001  6.577082E+000 -6.305181E+001  5.851342E+000 -1.137138E-001 -7.341161E+001
  15.1000     -1.058887E-001 -7.588740E+001 -6.120806E+001  5.117244E+000 -6.111523E+001  5.389125E+000 -1.198379E-001 -7.449998E+001
  15.2000     -1.107752E-001 -7.700996E+001 -5.947703E+001  4.084778E+000 -5.956384E+001  3.666857E+000 -1.268830E-001 -7.561245E+001
  15.3000     -1.159611E-001 -7.819205E+001 -5.786702E+001  3.298397E+000 -5.798508E+001  3.306507E+000 -1.332646E-001 -7.677858E+001
  15.4000     -1.230436E-001 -7.937966E+001 -5.628111E+001  2.306038E+000 -5.632579E+001  2.452647E+000 -1.380653E-001 -7.797418E+001
  15.5000     -1.290420E-001 -8.064395E+001 -5.479992E+001  6.109437E-001 -5.478225E+001  8.918627E-001 -1.491845E-001 -7.920010E+001
  15.6000     -1.388576E-001 -8.194599E+001 -5.323724E+001 -2.037604E-001 -5.322841E+001 -2.061987E-001 -1.557058E-001 -8.048948E+001
  15.7000     -1.456867E-001 -8.328036E+001 -5.175278E+001 -1.799649E+000 -5.175599E+001 -1.789343E+000 -1.661650E-001 -8.182811E+001
  15.8000     -1.550436E-001 -8.467825E+001 -5.022129E+001 -2.975241E+000 -5.026954E+001 -3.167292E+000 -1.746774E-001 -8.321579E+001
  15.9000     -1.666869E-001 -8.614512E+001 -4.878199E+001 -4.710826E+000 -4.880231E+001 -4.545549E+000 -1.866267E-001 -8.466697E+001
  16.0000     -1.735088E-001 -8.764840E+001 -4.732796E+001 -6.121301E+000 -4.733718E+001 -6.155745E+000 -1.979231E-001 -8.618005E+001
  16.1000     -1.867897E-001 -8.923513E+001 -4.587447E+001 -7.873655E+000 -4.586411E+001 -7.831443E+000 -2.092023E-001 -8.774997E+001
  16.2000     -1.972861E-001 -9.089256E+001 -4.440434E+001 -9.626095E+000 -4.441681E+001 -9.547337E+000 -2.246167E-001 -8.940275E+001
  16.3000     -2.124782E-001 -9.261578E+001 -4.293468E+001 -1.136512E+001 -4.295683E+001 -1.142531E+001 -2.386331E-001 -9.113444E+001
  16.4000     -2.266102E-001 -9.445956E+001 -4.147655E+001 -1.326460E+001 -4.148653E+001 -1.337668E+001 -2.545424E-001 -9.296746E+001
  16.5000     -2.426331E-001 -9.636340E+001 -4.000114E+001 -1.541586E+001 -4.000391E+001 -1.542027E+001 -2.733460E-001 -9.488553E+001
  16.6000     -2.607355E-001 -9.839065E+001 -3.851234E+001 -1.756773E+001 -3.852116E+001 -1.762875E+001 -2.943592E-001 -9.692349E+001
  16.7000     -2.807236E-001 -1.005414E+002 -3.699268E+001 -1.996719E+001 -3.701151E+001 -1.992067E+001 -3.151244E-001 -9.905817E+001
  16.8000     -3.045550E-001 -1.028022E+002 -3.547362E+001 -2.243981E+001 -3.548711E+001 -2.243100E+001 -3.434136E-001 -1.013594E+002
  16.9000     -3.296486E-001 -1.052157E+002 -3.392329E+001 -2.510751E+001 -3.393349E+001 -2.509626E+001 -3.712526E-001 -1.037968E+002
  17.0000     -3.595386E-001 -1.077783E+002 -3.235883E+001 -2.795601E+001 -3.237212E+001 -2.797777E+001 -4.035052E-001 -1.064006E+002
  17.1000     -3.927065E-001 -1.105546E+002 -3.075857E+001 -3.103816E+001 -3.077277E+001 -3.106718E+001 -4.440604E-001 -1.092300E+002
  17.2000     -4.306464E-001 -1.135270E+002 -2.913582E+001 -3.433696E+001 -2.914722E+001 -3.438145E+001 -4.893673E-001 -1.122373E+002
  17.3000     -4.784081E-001 -1.167218E+002 -2.747587E+001 -3.798729E+001 -2.748813E+001 -3.800570E+001 -5.402833E-001 -1.155460E+002
  17.4000     -5.302597E-001 -1.202082E+002 -2.577656E+001 -4.191134E+001 -2.578756E+001 -4.194097E+001 -6.032531E-001 -1.191104E+002
  17.5000     -5.964937E-001 -1.240081E+002 -2.403704E+001 -4.624110E+001 -2.404854E+001 -4.627518E+001 -6.755829E-001 -1.230518E+002
  17.6000     -6.797994E-001 -1.282026E+002 -2.225365E+001 -5.100515E+001 -2.226678E+001 -5.102254E+001 -7.696820E-001 -1.273799E+002
  17.7000     -7.807209E-001 -1.328281E+002 -2.042720E+001 -5.632372E+001 -2.043836E+001 -5.634564E+001 -8.853700E-001 -1.322272E+002
  17.8000     -9.143283E-001 -1.379963E+002 -1.855590E+001 -6.228138E+001 -1.856633E+001 -6.229013E+001 -1.037467E+000 -1.376534E+002
  17.9000     -1.088561E+000 -1.438091E+002 -1.663747E+001 -6.902257E+001 -1.664600E+001 -6.902234E+001 -1.236349E+000 -1.438058E+002
  18.0000     -1.326364E+000 -1.503977E+002 -1.468001E+001 -7.670354E+001 -1.469219E+001 -7.672124E+001 -1.505201E+000 -1.508510E+002
  18.1000     -1.664717E+000 -1.579190E+002 -1.270378E+001 -8.557677E+001 -1.271263E+001 -8.555907E+001 -1.881784E+000 -1.589505E+002
  18.2000     -2.151085E+000 -1.665001E+002 -1.073657E+001 -9.579078E+001 -1.074730E+001 -9.580838E+001 -2.425115E+000 -1.683256E+002
  18.3000     -2.869529E+000 -1.762041E+002 -8.834535E+000 -1.076160E+002 -8.839113E+000 -1.076065E+002 -3.222731E+000 -1.791308E+002
  18.4000     -3.929399E+000  1.730472E+002 -7.064253E+000 -1.210768E+002 -7.073255E+000 -1.210613E+002 -4.404121E+000  1.685962E+002
  18.5000     -5.476426E+000  1.617966E+002 -5.526087E+000 -1.360339E+002 -5.532080E+000 -1.360210E+002 -6.146026E+000  1.551224E+002
  18.6000     -7.642306E+000  1.512217E+002 -4.297984E+000 -1.519211E+002 -4.302790E+000 -1.519095E+002 -8.666011E+000  1.411935E+002
  18.7000     -1.052237E+001  1.432908E+002 -3.407089E+000 -1.679903E+002 -3.412551E+000 -1.679794E+002 -1.226154E+001  1.279399E+002
  18.8000     -1.406020E+001  1.411248E+002 -2.816050E+000  1.765051E+002 -2.819057E+000  1.765104E+002 -1.751692E+001  1.175204E+002
  18.9000     -1.770812E+001  1.490438E+002 -2.442981E+000  1.619826E+002 -2.445243E+000  1.619857E+002 -2.648193E+001  1.191052E+002
  19.0000     -1.996368E+001  1.665030E+002 -2.213010E+000  1.485472E+002 -2.213247E+000  1.485468E+002 -3.188524E+001 -1.379928E+002
  19.1000     -2.027964E+001 -1.791224E+002 -2.057631E+000  1.361075E+002 -2.061713E+000  1.361165E+002 -2.441461E+001 -1.208531E+002
  19.2000     -2.010487E+001 -1.737961E+002 -1.945433E+000  1.245069E+002 -1.948112E+000  1.245014E+002 -2.193292E+001 -1.248254E+002
  19.3000     -2.031709E+001 -1.740466E+002 -1.854961E+000  1.135578E+002 -1.859611E+000  1.135407E+002 -2.130352E+001 -1.307335E+002
  19.4000     -2.107035E+001 -1.770186E+002 -1.778385E+000  1.031237E+002 -1.779759E+000  1.031091E+002 -2.169137E+001 -1.362494E+002
  19.5000     -2.239680E+001  1.791667E+002 -1.710613E+000  9.311488E+001 -1.713855E+000  9.311251E+001 -2.288507E+001 -1.406593E+002
  19.6000     -2.432432E+001  1.755594E+002 -1.652240E+000  8.343737E+001 -1.655317E+000  8.344735E+001 -2.475734E+001 -1.428539E+002
  19.7000     -2.690521E+001  1.736714E+002 -1.600988E+000  7.409507E+001 -1.601002E+000  7.409113E+001 -2.741281E+001 -1.412144E+002
  19.8000     -3.020106E+001  1.754239E+002 -1.555718E+000  6.499654E+001 -1.556963E+000  6.500134E+001 -3.073019E+001 -1.319540E+002
  19.9000     -3.398224E+001 -1.741930E+002 -1.519644E+000  5.613431E+001 -1.522766E+000  5.613722E+001 -3.385246E+001 -1.076787E+002
  20.0000     -3.669823E+001 -1.515824E+002 -1.489263E+000  4.750228E+001 -1.491557E+000  4.749161E+001 -3.419160E+001 -7.443040E+001
  20.1000     -3.702942E+001 -1.319266E+002 -1.464699E+000  3.904682E+001 -1.465839E+000  3.904239E+001 -3.259429E+001 -5.241557E+001
  20.2000     -3.659787E+001 -1.283538E+002 -1.443778E+000  3.075912E+001 -1.445112E+000  3.075783E+001 -3.102461E+001 -3.999728E+001
  20.3000     -3.711465E+001 -1.389737E+002 -1.424423E+000  2.263777E+001 -1.427886E+000  2.262303E+001 -3.007431E+001 -3.065101E+001
  20.4000     -3.774103E+001 -1.670089E+002 -1.408678E+000  1.463426E+001 -1.412506E+000  1.462390E+001 -2.925991E+001 -2.095667E+001
  20.5000     -3.620572E+001  1.527170E+002 -1.400834E+000  6.735245E+000 -1.401080E+000  6.724830E+000 -2.838833E+001 -1.036703E+001
  20.6000     -3.245654E+001  1.224165E+002 -1.391261E+000 -1.072454E+000 -1.392402E+000 -1.083532E+000 -2.713108E+001 -2.385317E-001
  20.7000     -2.880203E+001  1.039444E+002 -1.388506E+000 -8.777893E+000 -1.386608E+000 -8.793668E+000 -2.556793E+001  7.783552E+000
  20.8000     -2.583656E+001  9.125985E+001 -1.386286E+000 -1.642450E+001 -1.389133E+000 -1.643577E+001 -2.389751E+001  1.267067E+001
  20.9000     -2.349929E+001  8.141954E+001 -1.392184E+000 -2.400378E+001 -1.392062E+000 -2.401440E+001 -2.232363E+001  1.462510E+001
  21.0000     -2.163225E+001  7.314769E+001 -1.400833E+000 -3.152568E+001 -1.400331E+000 -3.151458E+001 -2.094014E+001  1.441991E+001
  21.1000     -2.017777E+001  6.582760E+001 -1.409984E+000 -3.898072E+001 -1.410367E+000 -3.900112E+001 -1.981762E+001  1.257876E+001
  21.2000     -1.906279E+001  5.914871E+001 -1.424623E+000 -4.641686E+001 -1.424566E+000 -4.641990E+001 -1.894667E+001  9.617855E+000
  21.3000     -1.825219E+001  5.322747E+001 -1.437910E+000 -5.382505E+001 -1.439485E+000 -5.383100E+001 -1.834636E+001  5.707513E+000
  21.4000     -1.775218E+001  4.797678E+001 -1.452796E+000 -6.123459E+001 -1.453331E+000 -6.124621E+001 -1.804584E+001  1.206918E+000
  21.5000     -1.752040E+001  4.376011E+001 -1.465621E+000 -6.867643E+001 -1.467114E+000 -6.867598E+001 -1.808398E+001 -3.965945E+000
  21.6000     -1.758627E+001  4.068942E+001 -1.479904E+000 -7.617175E+001 -1.481588E+000 -7.618086E+001 -1.853930E+001 -9.416186E+000
  21.7000     -1.793918E+001  3.958356E+001 -1.496177E+000 -8.376775E+001 -1.495263E+000 -8.377435E+001 -1.955112E+001 -1.556616E+001
  21.8000     -1.856744E+001  4.166864E+001 -1.513978E+000 -9.150136E+001 -1.514411E+000 -9.151790E+001 -2.144894E+001 -2.211311E+001
  21.9000     -1.925538E+001  4.859560E+001 -1.544722E+000 -9.943522E+001 -1.543012E+000 -9.944217E+001 -2.509050E+001 -2.959518E+001
  22.0000     -1.942003E+001  6.155242E+001 -1.590141E+000 -1.075772E+002 -1.594703E+000 -1.075884E+002 -3.519709E+001 -4.236987E+001
  22.1000     -1.833907E+001  7.692076E+001 -1.667230E+000 -1.159815E+002 -1.669154E+000 -1.159833E+002 -3.022836E+001  1.427599E+002
  22.2000     -1.616377E+001  8.790885E+001 -1.787952E+000 -1.246339E+002 -1.790031E+000 -1.246369E+002 -2.109365E+001  1.322997E+002
  22.3000     -1.366131E+001  9.258104E+001 -1.965440E+000 -1.335375E+002 -1.969099E+000 -1.335462E+002 -1.623561E+001  1.234413E+002
  22.4000     -1.133520E+001  9.237897E+001 -2.218467E+000 -1.426083E+002 -2.223722E+000 -1.426129E+002 -1.287343E+001  1.148086E+002
  22.5000     -9.316590E+000  8.927422E+001 -2.559520E+000 -1.517906E+002 -2.565166E+000 -1.517860E+002 -1.032177E+001  1.061576E+002
