! Mini-Circuits
! S2P DATA File Format
! Type: BAND PASS FILTER
! Model: BBP-20R5+
! All S Parameters are in dB deg format
! TEST CONDITIONS: INPUT POWER = 0 dBm @ Temperature = +85deg C
# MHz S dB R 50
!Frequency        S11 dB  S11 DEG   S21 dB  S21 DEG   S12 dB  S12 DEG   S22 dB  S22 DEG
    .5000      2.871020E-003 -1.884640E+000 -9.209500E+001 -1.148189E+002 -9.975240E+001 -7.106957E+001  1.927254E-003 -1.839362E+000
   1.0000      4.581878E-003 -3.758181E+000 -1.047858E+002 -6.879644E+001 -1.081864E+002 -7.826576E+001 -1.678187E-004 -3.692731E+000
   1.5000      7.789095E-003 -5.626738E+000 -1.088873E+002 -1.433029E+002 -9.714313E+001  1.131438E+002  1.419079E-003 -5.525275E+000
   2.0000      3.776657E-003 -7.522667E+000 -1.082226E+002  1.449905E+002 -1.263328E+002 -9.826744E+001  1.169349E-003 -7.371004E+000
   2.5000      6.202270E-003 -9.396045E+000 -1.015821E+002 -8.371940E-001 -1.288510E+002 -7.647726E+001 -1.116290E-004 -9.230844E+000
   3.0000      5.165909E-003 -1.129749E+001 -1.068595E+002 -1.599284E+002 -9.945895E+001  1.492814E+002 -3.227209E-004 -1.109129E+001
   3.5000      4.064804E-003 -1.322222E+001 -1.022501E+002  1.694500E+002 -1.054884E+002 -4.501217E+001 -6.859525E-004 -1.296556E+001
   4.0000      4.119534E-003 -1.512753E+001 -1.001275E+002  4.465911E+001 -1.028280E+002 -1.454460E+002  1.392133E-003 -1.486062E+001
   4.5000      4.246866E-003 -1.707652E+001 -9.590865E+001 -7.282858E+001 -1.010902E+002 -6.403068E+001 -2.345476E-004 -1.674137E+001
   5.0000      2.840374E-003 -1.904029E+001 -1.050011E+002 -5.999429E+001 -9.891267E+001 -1.001905E+002 -1.679263E-003 -1.866959E+001
   5.5000      3.184709E-003 -2.102240E+001 -9.645972E+001 -1.673172E+002 -1.023225E+002 -6.907041E+001 -1.014577E-003 -2.062218E+001
   6.0000      1.658761E-003 -2.302641E+001 -9.753825E+001 -1.441231E+002 -1.022197E+002 -6.537845E+001 -3.289867E-003 -2.257487E+001
   6.5000      3.538228E-004 -2.505329E+001 -9.725577E+001 -1.249920E+002 -9.416540E+001 -1.300101E+002 -1.869108E-003 -2.457882E+001
   7.0000     -5.937615E-005 -2.713989E+001 -9.015755E+001 -1.066891E+002 -9.301670E+001 -1.244339E+002 -3.132094E-003 -2.658960E+001
   7.5000     -4.832839E-004 -2.924220E+001 -9.142857E+001 -1.312255E+002 -9.111992E+001 -1.394883E+002 -5.172222E-003 -2.867006E+001
   8.0000     -1.170038E-003 -3.139729E+001 -8.768284E+001 -1.157775E+002 -8.754420E+001 -1.312474E+002 -6.831407E-003 -3.077537E+001
   8.5000     -3.921016E-003 -3.360429E+001 -8.716428E+001 -1.239504E+002 -8.553156E+001 -1.280426E+002 -1.021223E-002 -3.293048E+001
   9.0000     -4.689972E-003 -3.588201E+001 -8.535510E+001 -1.270788E+002 -8.585307E+001 -1.349330E+002 -1.141084E-002 -3.514777E+001
   9.5000     -7.771260E-003 -3.821270E+001 -8.232000E+001 -1.264876E+002 -8.314550E+001 -1.358380E+002 -1.403886E-002 -3.742202E+001
  10.0000     -1.093321E-002 -4.062843E+001 -8.106051E+001 -1.358854E+002 -8.094119E+001 -1.266138E+002 -1.838509E-002 -3.978213E+001
  10.1000     -9.928019E-003 -4.111623E+001 -8.083395E+001 -1.399917E+002 -8.089551E+001 -1.304302E+002 -1.888954E-002 -4.026469E+001
  10.2000     -1.116062E-002 -4.162244E+001 -7.986075E+001 -1.348031E+002 -8.020634E+001 -1.379142E+002 -1.743944E-002 -4.075251E+001
  10.3000     -1.098896E-002 -4.212331E+001 -7.951337E+001 -1.308450E+002 -7.989716E+001 -1.327709E+002 -1.856085E-002 -4.124924E+001
  10.4000     -1.249628E-002 -4.264098E+001 -8.018336E+001 -1.335280E+002 -7.878403E+001 -1.355897E+002 -2.018575E-002 -4.173618E+001
  10.5000     -1.370146E-002 -4.313422E+001 -7.921087E+001 -1.355157E+002 -7.976156E+001 -1.337535E+002 -2.166967E-002 -4.224560E+001
  10.6000     -1.334099E-002 -4.366217E+001 -7.894895E+001 -1.340124E+002 -7.909435E+001 -1.324635E+002 -2.126575E-002 -4.274157E+001
  10.7000     -1.523601E-002 -4.417496E+001 -7.860548E+001 -1.318017E+002 -8.020910E+001 -1.367641E+002 -2.114313E-002 -4.325068E+001
  10.8000     -1.475766E-002 -4.469872E+001 -7.859058E+001 -1.321164E+002 -7.933955E+001 -1.342733E+002 -2.249115E-002 -4.376098E+001
  10.9000     -1.748556E-002 -4.521863E+001 -7.836252E+001 -1.383042E+002 -7.885365E+001 -1.398040E+002 -2.324837E-002 -4.428029E+001
  11.0000     -1.667732E-002 -4.574878E+001 -7.823866E+001 -1.414911E+002 -7.849029E+001 -1.365997E+002 -2.322424E-002 -4.479621E+001
  11.1000     -1.794925E-002 -4.629264E+001 -7.686642E+001 -1.414606E+002 -7.814414E+001 -1.412801E+002 -2.645230E-002 -4.532732E+001
  11.2000     -1.891645E-002 -4.683017E+001 -7.748801E+001 -1.387735E+002 -7.790535E+001 -1.435137E+002 -2.729473E-002 -4.585959E+001
  11.3000     -1.951855E-002 -4.738084E+001 -7.790961E+001 -1.413136E+002 -7.691598E+001 -1.399499E+002 -2.787860E-002 -4.639594E+001
  11.4000     -1.988677E-002 -4.793739E+001 -7.731425E+001 -1.395337E+002 -7.741782E+001 -1.435864E+002 -2.738551E-002 -4.693320E+001
  11.5000     -2.101786E-002 -4.849905E+001 -7.721052E+001 -1.381875E+002 -7.681276E+001 -1.426627E+002 -3.053023E-002 -4.749301E+001
  11.6000     -2.310313E-002 -4.906300E+001 -7.726927E+001 -1.407424E+002 -7.733569E+001 -1.389446E+002 -2.956554E-002 -4.804103E+001
  11.7000     -2.102192E-002 -4.964299E+001 -7.753728E+001 -1.399134E+002 -7.695566E+001 -1.438142E+002 -3.111597E-002 -4.861036E+001
  11.8000     -2.467763E-002 -5.022208E+001 -7.616579E+001 -1.399364E+002 -7.630991E+001 -1.478613E+002 -3.342028E-002 -4.916712E+001
  11.9000     -2.578472E-002 -5.079799E+001 -7.616333E+001 -1.414891E+002 -7.609400E+001 -1.431068E+002 -3.274195E-002 -4.975623E+001
  12.0000     -2.788415E-002 -5.139576E+001 -7.607256E+001 -1.467994E+002 -7.565714E+001 -1.431909E+002 -3.701502E-002 -5.034051E+001
  12.1000     -2.818216E-002 -5.200367E+001 -7.651575E+001 -1.456149E+002 -7.639678E+001 -1.434131E+002 -3.711767E-002 -5.093365E+001
  12.2000     -3.081372E-002 -5.261341E+001 -7.550409E+001 -1.449078E+002 -7.617741E+001 -1.370521E+002 -3.760460E-002 -5.151535E+001
  12.3000     -3.043849E-002 -5.322639E+001 -7.535099E+001 -1.433984E+002 -7.596185E+001 -1.460321E+002 -3.872613E-002 -5.213163E+001
  12.4000     -3.190655E-002 -5.384328E+001 -7.470981E+001 -1.437045E+002 -7.556229E+001 -1.431412E+002 -4.238876E-002 -5.274801E+001
  12.5000     -3.449868E-002 -5.448806E+001 -7.570776E+001 -1.408998E+002 -7.523065E+001 -1.436057E+002 -4.337612E-002 -5.337315E+001
  12.6000     -3.610015E-002 -5.513473E+001 -7.576900E+001 -1.491167E+002 -7.517381E+001 -1.458688E+002 -4.426574E-002 -5.400953E+001
  12.7000     -3.711935E-002 -5.578876E+001 -7.588034E+001 -1.485354E+002 -7.493693E+001 -1.462081E+002 -4.595048E-002 -5.465266E+001
  12.8000     -3.955800E-002 -5.644463E+001 -7.517306E+001 -1.424580E+002 -7.505065E+001 -1.466643E+002 -4.743578E-002 -5.530683E+001
  12.9000     -4.022207E-002 -5.712593E+001 -7.492425E+001 -1.493871E+002 -7.493397E+001 -1.447303E+002 -5.183482E-002 -5.597328E+001
  13.0000     -4.213489E-002 -5.781134E+001 -7.536314E+001 -1.502605E+002 -7.523158E+001 -1.505202E+002 -4.977007E-002 -5.664169E+001
  13.1000     -4.431994E-002 -5.850319E+001 -7.501186E+001 -1.502046E+002 -7.513077E+001 -1.476428E+002 -5.456887E-002 -5.731584E+001
  13.2000     -4.667107E-002 -5.922028E+001 -7.622378E+001 -1.522066E+002 -7.551501E+001 -1.507762E+002 -5.847413E-002 -5.802285E+001
  13.3000     -4.879596E-002 -5.994196E+001 -7.635719E+001 -1.547590E+002 -7.620236E+001 -1.507435E+002 -5.860395E-002 -5.872618E+001
  13.4000     -4.996688E-002 -6.068193E+001 -7.659447E+001 -1.489019E+002 -7.772928E+001 -1.501939E+002 -6.242722E-002 -5.946441E+001
  13.5000     -5.348620E-002 -6.141959E+001 -7.740746E+001 -1.500378E+002 -7.758823E+001 -1.441225E+002 -6.410483E-002 -6.021077E+001
  13.6000     -5.633394E-002 -6.218645E+001 -7.794936E+001 -1.500203E+002 -7.809135E+001 -1.459162E+002 -6.603435E-002 -6.094675E+001
  13.7000     -5.770228E-002 -6.296959E+001 -7.926407E+001 -1.532247E+002 -7.996042E+001 -1.466129E+002 -6.828334E-002 -6.171851E+001
  13.8000     -6.045816E-002 -6.375468E+001 -8.200285E+001 -1.511867E+002 -8.308328E+001 -1.441004E+002 -7.266852E-002 -6.249379E+001
  13.9000     -6.376004E-002 -6.456196E+001 -8.282607E+001 -1.445665E+002 -8.496115E+001 -1.445899E+002 -7.611445E-002 -6.328966E+001
  14.0000     -6.754762E-002 -6.540058E+001 -8.919482E+001 -1.251794E+002 -8.715903E+001 -1.340140E+002 -7.825860E-002 -6.410688E+001
  14.1000     -7.130813E-002 -6.625182E+001 -8.923183E+001 -8.141709E+001 -9.339679E+001 -5.912966E+001 -8.000576E-002 -6.493710E+001
  14.2000     -7.459977E-002 -6.710751E+001 -8.526977E+001 -2.129416E+001 -8.556094E+001 -2.390966E+001 -8.639994E-002 -6.580978E+001
  14.3000     -7.567735E-002 -6.800996E+001 -8.060423E+001  1.536985E+000 -8.014807E+001  6.785077E+000 -8.926594E-002 -6.667427E+001
  14.4000     -7.950880E-002 -6.890727E+001 -7.697684E+001 -2.410448E-002 -7.712771E+001 -2.872464E+000 -9.342587E-002 -6.757702E+001
  14.5000     -8.478924E-002 -6.983927E+001 -7.345051E+001  7.325982E+000 -7.366499E+001  7.677653E+000 -9.789184E-002 -6.849245E+001
  14.6000     -8.926094E-002 -7.080614E+001 -7.082360E+001  4.324016E+000 -7.065481E+001  5.168500E+000 -1.054136E-001 -6.943311E+001
  14.7000     -9.585592E-002 -7.178300E+001 -6.835523E+001  6.450465E+000 -6.857500E+001  5.162801E+000 -1.081145E-001 -7.040129E+001
  14.8000     -9.750985E-002 -7.280286E+001 -6.632524E+001  6.133282E+000 -6.644818E+001  3.965899E+000 -1.150819E-001 -7.142133E+001
  14.9000     -1.048299E-001 -7.384141E+001 -6.444293E+001  5.431127E+000 -6.469556E+001  5.530587E+000 -1.190179E-001 -7.244395E+001
  15.0000     -1.086702E-001 -7.491578E+001 -6.248667E+001  5.453466E+000 -6.259947E+001  4.282636E+000 -1.249453E-001 -7.349003E+001
  15.1000     -1.152588E-001 -7.601877E+001 -6.094933E+001  4.174588E+000 -6.085417E+001  3.652383E+000 -1.320608E-001 -7.458680E+001
  15.2000     -1.200611E-001 -7.714876E+001 -5.913994E+001  2.636006E+000 -5.915175E+001  3.659574E+000 -1.376380E-001 -7.570992E+001
  15.3000     -1.266027E-001 -7.833617E+001 -5.755017E+001  1.993154E+000 -5.756451E+001  1.592339E+000 -1.458213E-001 -7.687981E+001
  15.4000     -1.350920E-001 -7.953895E+001 -5.598554E+001  1.475813E+000 -5.599688E+001  9.034792E-001 -1.515763E-001 -7.808540E+001
  15.5000     -1.410204E-001 -8.080985E+001 -5.436720E+001 -1.031311E-001 -5.443390E+001 -1.552674E-001 -1.638407E-001 -7.932999E+001
  15.6000     -1.505272E-001 -8.212923E+001 -5.284325E+001 -1.560116E+000 -5.293493E+001 -1.329820E+000 -1.707817E-001 -8.062670E+001
  15.7000     -1.584160E-001 -8.348470E+001 -5.139470E+001 -2.604017E+000 -5.142511E+001 -2.938908E+000 -1.813878E-001 -8.197834E+001
  15.8000     -1.697907E-001 -8.489645E+001 -4.993714E+001 -4.142731E+000 -4.989530E+001 -4.110930E+000 -1.909154E-001 -8.338793E+001
  15.9000     -1.812408E-001 -8.637334E+001 -4.844251E+001 -5.527787E+000 -4.846646E+001 -5.683910E+000 -2.046309E-001 -8.483699E+001
  16.0000     -1.916773E-001 -8.790553E+001 -4.699311E+001 -7.200599E+000 -4.699966E+001 -7.248963E+000 -2.168686E-001 -8.636434E+001
  16.1000     -2.054388E-001 -8.950938E+001 -4.551465E+001 -8.891642E+000 -4.554837E+001 -8.932547E+000 -2.281090E-001 -8.795833E+001
  16.2000     -2.166708E-001 -9.117433E+001 -4.405345E+001 -1.076615E+001 -4.407390E+001 -1.069430E+001 -2.464606E-001 -8.962773E+001
  16.3000     -2.344083E-001 -9.294384E+001 -4.259034E+001 -1.251104E+001 -4.259743E+001 -1.261928E+001 -2.630681E-001 -9.138210E+001
  16.4000     -2.485566E-001 -9.479560E+001 -4.111471E+001 -1.463790E+001 -4.112661E+001 -1.463846E+001 -2.819203E-001 -9.324919E+001
  16.5000     -2.651477E-001 -9.673264E+001 -3.963459E+001 -1.664995E+001 -3.964590E+001 -1.667562E+001 -3.018692E-001 -9.517416E+001
  16.6000     -2.883583E-001 -9.878154E+001 -3.813951E+001 -1.895456E+001 -3.815238E+001 -1.894898E+001 -3.263381E-001 -9.724406E+001
  16.7000     -3.107602E-001 -1.009644E+002 -3.663790E+001 -2.136551E+001 -3.664577E+001 -2.132489E+001 -3.518735E-001 -9.941060E+001
  16.8000     -3.356755E-001 -1.032665E+002 -3.510632E+001 -2.390429E+001 -3.511501E+001 -2.395788E+001 -3.802946E-001 -1.017506E+002
  16.9000     -3.638032E-001 -1.057277E+002 -3.355109E+001 -2.664176E+001 -3.356670E+001 -2.662380E+001 -4.129595E-001 -1.042220E+002
  17.0000     -3.984978E-001 -1.083469E+002 -3.198355E+001 -2.955168E+001 -3.199507E+001 -2.957090E+001 -4.497669E-001 -1.068719E+002
  17.1000     -4.362363E-001 -1.111589E+002 -3.037481E+001 -3.272546E+001 -3.038934E+001 -3.273800E+001 -4.943222E-001 -1.097437E+002
  17.2000     -4.799084E-001 -1.141966E+002 -2.874310E+001 -3.617009E+001 -2.875613E+001 -3.615316E+001 -5.443437E-001 -1.128225E+002
  17.3000     -5.317902E-001 -1.174676E+002 -2.707375E+001 -3.988518E+001 -2.708515E+001 -3.988543E+001 -6.031854E-001 -1.161955E+002
  17.4000     -5.923134E-001 -1.210283E+002 -2.536975E+001 -4.394113E+001 -2.538732E+001 -4.396801E+001 -6.744157E-001 -1.198354E+002
  17.5000     -6.675004E-001 -1.249284E+002 -2.362333E+001 -4.840188E+001 -2.363652E+001 -4.843766E+001 -7.573043E-001 -1.238636E+002
  17.6000     -7.628086E-001 -1.292317E+002 -2.183991E+001 -5.337501E+001 -2.184764E+001 -5.335237E+001 -8.638691E-001 -1.283008E+002
  17.7000     -8.792015E-001 -1.339919E+002 -2.000533E+001 -5.887598E+001 -2.001580E+001 -5.889629E+001 -9.965180E-001 -1.332771E+002
  17.8000     -1.029556E+000 -1.393107E+002 -1.812617E+001 -6.508322E+001 -1.813886E+001 -6.507291E+001 -1.169892E+000 -1.388476E+002
  17.9000     -1.232459E+000 -1.452964E+002 -1.620884E+001 -7.209444E+001 -1.622075E+001 -7.209051E+001 -1.399795E+000 -1.451850E+002
  18.0000     -1.508443E+000 -1.520837E+002 -1.425924E+001 -8.010919E+001 -1.427253E+001 -8.010902E+001 -1.710531E+000 -1.524192E+002
  18.1000     -1.898619E+000 -1.598125E+002 -1.229900E+001 -8.934454E+001 -1.231034E+001 -8.932688E+001 -2.144444E+000 -1.607502E+002
  18.2000     -2.459045E+000 -1.686005E+002 -1.036499E+001 -9.997469E+001 -1.037461E+001 -9.997540E+001 -2.768688E+000 -1.703492E+002
  18.3000     -3.277510E+000 -1.784456E+002 -8.511243E+000 -1.122040E+002 -8.520224E+000 -1.121694E+002 -3.683178E+000  1.786705E+002
  18.4000     -4.470751E+000  1.708561E+002 -6.818786E+000 -1.259929E+002 -6.830521E+000 -1.259765E+002 -5.024023E+000  1.663770E+002
  18.5000     -6.179792E+000  1.599986E+002 -5.378430E+000 -1.411198E+002 -5.385349E+000 -1.410939E+002 -6.972155E+000  1.531758E+002
  18.6000     -8.521531E+000  1.503491E+002 -4.249206E+000 -1.569365E+002 -4.257204E+000 -1.569125E+002 -9.761022E+000  1.399844E+002
  18.7000     -1.154443E+001  1.441115E+002 -3.445231E+000 -1.727388E+002 -3.451575E+000 -1.727027E+002 -1.371179E+001  1.282693E+002
  18.8000     -1.508851E+001  1.445995E+002 -2.910205E+000  1.721468E+002 -2.914394E+000  1.721706E+002 -1.956563E+001  1.214420E+002
  18.9000     -1.836757E+001  1.553641E+002 -2.569961E+000  1.580343E+002 -2.574515E+000  1.580370E+002 -2.955398E+001  1.412278E+002
  19.0000     -1.998268E+001  1.721947E+002 -2.352610E+000  1.449350E+002 -2.353910E+000  1.449561E+002 -2.830428E+001 -1.311374E+002
  19.1000     -2.011623E+001 -1.766178E+002 -2.199917E+000  1.327760E+002 -2.204562E+000  1.327955E+002 -2.341181E+001 -1.227811E+002
  19.2000     -2.009178E+001 -1.732929E+002 -2.085324E+000  1.213882E+002 -2.089462E+000  1.213871E+002 -2.165876E+001 -1.262403E+002
  19.3000     -2.050252E+001 -1.743504E+002 -1.992702E+000  1.105991E+002 -1.996244E+000  1.105942E+002 -2.136938E+001 -1.312192E+002
  19.4000     -2.143675E+001 -1.775529E+002 -1.913835E+000  1.002979E+002 -1.914882E+000  1.003076E+002 -2.196505E+001 -1.356304E+002
  19.5000     -2.294293E+001  1.787152E+002 -1.841340E+000  9.038688E+001 -1.845800E+000  9.040671E+001 -2.330169E+001 -1.386840E+002
  19.6000     -2.505485E+001  1.754478E+002 -1.781025E+000  8.081141E+001 -1.786444E+000  8.083359E+001 -2.525532E+001 -1.389597E+002
  19.7000     -2.785277E+001  1.742259E+002 -1.727357E+000  7.153783E+001 -1.731236E+000  7.155230E+001 -2.784661E+001 -1.344985E+002
  19.8000     -3.140566E+001  1.773589E+002 -1.682350E+000  6.251160E+001 -1.684498E+000  6.251170E+001 -3.071680E+001 -1.216493E+002
  19.9000     -3.535618E+001 -1.694245E+002 -1.645198E+000  5.370686E+001 -1.648750E+000  5.372945E+001 -3.268997E+001 -9.755409E+001
  20.0000     -3.777602E+001 -1.442173E+002 -1.615693E+000  4.512897E+001 -1.617382E+000  4.513469E+001 -3.253229E+001 -7.215624E+001
  20.1000     -3.792868E+001 -1.260939E+002 -1.587784E+000  3.673368E+001 -1.591468E+000  3.673793E+001 -3.146399E+001 -5.497313E+001
  20.2000     -3.788423E+001 -1.252077E+002 -1.567162E+000  2.848789E+001 -1.570513E+000  2.849176E+001 -3.043528E+001 -4.347990E+001
  20.3000     -3.916877E+001 -1.401626E+002 -1.546989E+000  2.039197E+001 -1.552358E+000  2.040467E+001 -2.984528E+001 -3.345297E+001
  20.4000     -4.005442E+001 -1.798834E+002 -1.530205E+000  1.241591E+001 -1.535592E+000  1.242485E+001 -2.921591E+001 -2.254593E+001
  20.5000     -3.672038E+001  1.340330E+002 -1.520744E+000  4.546967E+000 -1.522283E+000  4.542933E+000 -2.837786E+001 -1.075660E+001
  20.6000     -3.204575E+001  1.089912E+002 -1.512686E+000 -3.240559E+000 -1.516302E+000 -3.225707E+000 -2.705334E+001  2.857113E-002
  20.7000     -2.827638E+001  9.448356E+001 -1.509192E+000 -1.093279E+001 -1.509530E+000 -1.092603E+001 -2.541679E+001  8.054358E+000
  20.8000     -2.537295E+001  8.417262E+001 -1.508247E+000 -1.855771E+001 -1.513228E+000 -1.854645E+001 -2.371571E+001  1.264621E+001
  20.9000     -2.312860E+001  7.575702E+001 -1.514413E+000 -2.611839E+001 -1.515829E+000 -2.611193E+001 -2.215628E+001  1.425839E+001
  21.0000     -2.135240E+001  6.845927E+001 -1.523203E+000 -3.362877E+001 -1.525659E+000 -3.360910E+001 -2.081428E+001  1.377011E+001
  21.1000     -1.998274E+001  6.186166E+001 -1.533556E+000 -4.108482E+001 -1.536416E+000 -4.107461E+001 -1.974665E+001  1.175738E+001
  21.2000     -1.894779E+001  5.579259E+001 -1.549463E+000 -4.851293E+001 -1.549900E+000 -4.850103E+001 -1.893964E+001  8.664391E+000
  21.3000     -1.821215E+001  5.042699E+001 -1.563708E+000 -5.592570E+001 -1.565109E+000 -5.591346E+001 -1.841500E+001  4.721360E+000
  21.4000     -1.778236E+001  4.573309E+001 -1.578633E+000 -6.335238E+001 -1.581015E+000 -6.333781E+001 -1.820517E+001  2.453617E-001
  21.5000     -1.762261E+001  4.216486E+001 -1.593014E+000 -7.080556E+001 -1.595784E+000 -7.079388E+001 -1.835723E+001 -4.825212E+000
  21.6000     -1.775285E+001  3.987530E+001 -1.608997E+000 -7.834087E+001 -1.612382E+000 -7.832059E+001 -1.896088E+001 -1.004538E+001
  21.7000     -1.815100E+001  3.986803E+001 -1.630016E+000 -8.597794E+001 -1.631717E+000 -8.596931E+001 -2.020631E+001 -1.579972E+001
  21.8000     -1.876172E+001  4.349154E+001 -1.652807E+000 -9.375977E+001 -1.655111E+000 -9.375703E+001 -2.251271E+001 -2.142342E+001
  21.9000     -1.927198E+001  5.222164E+001 -1.693138E+000 -1.017451E+002 -1.695190E+000 -1.017486E+002 -2.720679E+001 -2.642936E+001
  22.0000     -1.902900E+001  6.593338E+001 -1.751841E+000 -1.099549E+002 -1.756590E+000 -1.099548E+002 -4.768109E+001  7.938935E+000
  22.1000     -1.756736E+001  7.974838E+001 -1.846115E+000 -1.184073E+002 -1.849507E+000 -1.183987E+002 -2.651621E+001  1.314110E+002
  22.2000     -1.530042E+001  8.833345E+001 -1.988833E+000 -1.270988E+002 -1.993882E+000 -1.270840E+002 -1.946862E+001  1.258142E+002
  22.3000     -1.289924E+001  9.130137E+001 -2.193001E+000 -1.360240E+002 -2.198028E+000 -1.360262E+002 -1.521423E+001  1.183084E+002
  22.4000     -1.071102E+001  9.016687E+001 -2.472585E+000 -1.450736E+002 -2.481417E+000 -1.450561E+002 -1.215764E+001  1.103348E+002
  22.5000     -8.827138E+000  8.664103E+001 -2.845425E+000 -1.541856E+002 -2.851202E+000 -1.541488E+002 -9.802407E+000  1.021118E+002
