! Mini-Circuits
! S2P DATA File Format
! Type: BAND PASS FILTER
! Model: BBP-20R5+
! All S Parameters are in dB deg format
! TEST CONDITIONS: INPUT POWER = 0 dBm @ Temperature = -40deg C
# MHz S dB R 50
!Frequency        S11 dB  S11 DEG   S21 dB  S21 DEG   S12 dB  S12 DEG   S22 dB  S22 DEG
    .5000      1.696474E-003 -1.886862E+000 -9.905625E+001  8.366228E+001 -9.896941E+001  1.067566E+002 -2.125527E-003 -1.850084E+000
   1.0000      3.036754E-003 -3.763558E+000 -9.343404E+001 -1.598758E+002 -1.002757E+002 -5.447392E+001 -2.568596E-003 -3.713415E+000
   1.5000      4.436143E-003 -5.651555E+000 -1.067107E+002 -8.997879E+001 -9.603664E+001 -1.772485E+002 -1.627940E-003 -5.551083E+000
   2.0000      1.758355E-003 -7.543694E+000 -1.018418E+002  1.477674E+002 -9.860734E+001  1.464723E+002 -2.069853E-003 -7.408548E+000
   2.5000      3.780545E-003 -9.429202E+000 -1.045964E+002 -5.433273E+001 -9.742026E+001  8.807992E+001 -3.458140E-003 -9.277795E+000
   3.0000      2.498363E-003 -1.132884E+001 -9.960033E+001  1.463122E+002 -1.117666E+002  1.720610E+002 -3.478006E-003 -1.114363E+001
   3.5000      2.890581E-003 -1.325903E+001 -9.838174E+001 -2.448730E+001 -9.947734E+001 -1.047285E+002 -3.266321E-003 -1.302216E+001
   4.0000      1.363405E-003 -1.517562E+001 -1.006230E+002  7.696354E+001 -9.515159E+001 -1.535025E+002 -2.750909E-003 -1.492417E+001
   4.5000      2.121685E-003 -1.712991E+001 -9.899835E+001  1.765524E+002 -1.168395E+002  9.024200E+001 -2.379023E-003 -1.682385E+001
   5.0000      6.805781E-004 -1.909437E+001 -1.033909E+002 -1.732398E+002 -9.651638E+001 -1.117173E+002 -3.598942E-003 -1.874758E+001
   5.5000      1.062501E-003 -2.108818E+001 -1.068492E+002  1.542738E+002 -9.517133E+001 -1.413026E+002 -2.198535E-003 -2.070825E+001
   6.0000      1.274496E-003 -2.310429E+001 -9.736559E+001 -1.090010E+002 -9.294661E+001 -1.331297E+002 -4.443523E-003 -2.266988E+001
   6.5000     -1.888812E-003 -2.512965E+001 -1.153862E+002 -1.678237E+002 -9.767585E+001 -1.044060E+002 -2.053148E-003 -2.468164E+001
   7.0000     -1.061141E-004 -2.722083E+001 -9.478656E+001 -1.213902E+002 -9.752935E+001 -1.388802E+002 -4.776410E-003 -2.671124E+001
   7.5000     -1.659375E-003 -2.931614E+001 -8.781618E+001 -1.362085E+002 -8.792118E+001 -1.132881E+002 -5.573029E-003 -2.878436E+001
   8.0000     -1.510456E-003 -3.148401E+001 -8.776154E+001 -1.203817E+002 -8.674250E+001 -1.241223E+002 -7.106989E-003 -3.089293E+001
   8.5000     -4.396498E-003 -3.369731E+001 -8.739656E+001 -1.382895E+002 -8.458782E+001 -1.148881E+002 -1.063536E-002 -3.305875E+001
   9.0000     -2.800803E-003 -3.595988E+001 -8.655201E+001 -1.309006E+002 -8.394675E+001 -1.296060E+002 -1.052581E-002 -3.526602E+001
   9.5000     -6.539605E-003 -3.829088E+001 -8.180669E+001 -1.363426E+002 -8.339075E+001 -1.324197E+002 -1.340079E-002 -3.754344E+001
  10.0000     -9.326044E-003 -4.070969E+001 -8.107990E+001 -1.347507E+002 -8.208955E+001 -1.432937E+002 -1.606845E-002 -3.990851E+001
  10.1000     -6.620611E-003 -4.119223E+001 -8.049611E+001 -1.322724E+002 -8.165195E+001 -1.330976E+002 -1.651648E-002 -4.038854E+001
  10.2000     -8.192276E-003 -4.168970E+001 -8.040618E+001 -1.359889E+002 -8.077298E+001 -1.428369E+002 -1.460917E-002 -4.086766E+001
  10.3000     -8.583449E-003 -4.220447E+001 -8.085910E+001 -1.346534E+002 -8.035855E+001 -1.362201E+002 -1.826896E-002 -4.136392E+001
  10.4000     -9.809679E-003 -4.270309E+001 -8.123111E+001 -1.336956E+002 -8.060139E+001 -1.423539E+002 -1.836698E-002 -4.185103E+001
  10.5000     -1.185373E-002 -4.321350E+001 -7.887756E+001 -1.410401E+002 -7.875151E+001 -1.340737E+002 -1.818713E-002 -4.235275E+001
  10.6000     -1.144016E-002 -4.373071E+001 -7.907658E+001 -1.361529E+002 -8.001285E+001 -1.439153E+002 -1.898184E-002 -4.285500E+001
  10.7000     -1.268659E-002 -4.423882E+001 -7.959786E+001 -1.333829E+002 -7.997349E+001 -1.435154E+002 -1.943016E-002 -4.336161E+001
  10.8000     -1.240979E-002 -4.476279E+001 -7.901408E+001 -1.326828E+002 -7.886536E+001 -1.403881E+002 -1.943074E-002 -4.387020E+001
  10.9000     -1.419415E-002 -4.528480E+001 -7.800870E+001 -1.382677E+002 -7.800198E+001 -1.342286E+002 -2.135202E-002 -4.439035E+001
  11.0000     -1.452441E-002 -4.581855E+001 -7.935582E+001 -1.385932E+002 -7.893552E+001 -1.375438E+002 -2.116376E-002 -4.490657E+001
  11.1000     -1.439492E-002 -4.634781E+001 -7.838213E+001 -1.409753E+002 -7.824930E+001 -1.374199E+002 -2.193112E-002 -4.544168E+001
  11.2000     -1.512378E-002 -4.689597E+001 -7.782105E+001 -1.380927E+002 -7.870895E+001 -1.382281E+002 -2.431987E-002 -4.596659E+001
  11.3000     -1.527188E-002 -4.743842E+001 -7.700964E+001 -1.388801E+002 -7.790898E+001 -1.426319E+002 -2.351251E-002 -4.649384E+001
  11.4000     -1.617507E-002 -4.800167E+001 -7.707481E+001 -1.354298E+002 -7.809690E+001 -1.406560E+002 -2.343955E-002 -4.705252E+001
  11.5000     -1.766488E-002 -4.855617E+001 -7.681520E+001 -1.399711E+002 -7.781151E+001 -1.405215E+002 -2.688695E-002 -4.758999E+001
  11.6000     -1.918272E-002 -4.911025E+001 -7.679781E+001 -1.411091E+002 -7.671362E+001 -1.442717E+002 -2.596851E-002 -4.814362E+001
  11.7000     -1.776592E-002 -4.968042E+001 -7.647322E+001 -1.465493E+002 -7.611408E+001 -1.432246E+002 -2.671504E-002 -4.871400E+001
  11.8000     -2.061696E-002 -5.026677E+001 -7.675629E+001 -1.441384E+002 -7.670568E+001 -1.415717E+002 -2.908267E-002 -4.926157E+001
  11.9000     -2.156481E-002 -5.084984E+001 -7.645200E+001 -1.383844E+002 -7.626334E+001 -1.423952E+002 -2.890488E-002 -4.984049E+001
  12.0000     -2.318588E-002 -5.143364E+001 -7.583024E+001 -1.423155E+002 -7.660022E+001 -1.396914E+002 -3.130630E-002 -5.042538E+001
  12.1000     -2.265560E-002 -5.204738E+001 -7.574158E+001 -1.443625E+002 -7.560864E+001 -1.452581E+002 -3.055069E-002 -5.100915E+001
  12.2000     -2.412183E-002 -5.264589E+001 -7.591768E+001 -1.471620E+002 -7.594231E+001 -1.441514E+002 -3.243801E-002 -5.160754E+001
  12.3000     -2.397776E-002 -5.325836E+001 -7.556175E+001 -1.475889E+002 -7.644581E+001 -1.470173E+002 -3.207830E-002 -5.221229E+001
  12.4000     -2.533321E-002 -5.387579E+001 -7.564586E+001 -1.417550E+002 -7.539312E+001 -1.406761E+002 -3.574806E-002 -5.282454E+001
  12.5000     -2.839692E-002 -5.450949E+001 -7.563480E+001 -1.435812E+002 -7.584151E+001 -1.456508E+002 -3.760058E-002 -5.344415E+001
  12.6000     -2.813267E-002 -5.515260E+001 -7.532790E+001 -1.481530E+002 -7.486549E+001 -1.461012E+002 -3.872579E-002 -5.407421E+001
  12.7000     -2.895241E-002 -5.580154E+001 -7.501131E+001 -1.486937E+002 -7.545764E+001 -1.473706E+002 -3.950517E-002 -5.471726E+001
  12.8000     -3.205227E-002 -5.645459E+001 -7.549638E+001 -1.497301E+002 -7.523519E+001 -1.483858E+002 -3.801943E-002 -5.537100E+001
  12.9000     -3.256067E-002 -5.713122E+001 -7.533370E+001 -1.494275E+002 -7.505045E+001 -1.527993E+002 -4.229309E-002 -5.601918E+001
  13.0000     -3.430901E-002 -5.781338E+001 -7.549433E+001 -1.483937E+002 -7.521193E+001 -1.501167E+002 -4.028424E-002 -5.669107E+001
  13.1000     -3.597231E-002 -5.849841E+001 -7.487993E+001 -1.508153E+002 -7.505826E+001 -1.536584E+002 -4.571196E-002 -5.736113E+001
  13.2000     -3.885147E-002 -5.920876E+001 -7.621822E+001 -1.490344E+002 -7.592418E+001 -1.462597E+002 -4.692245E-002 -5.806719E+001
  13.3000     -3.962011E-002 -5.992399E+001 -7.617206E+001 -1.537164E+002 -7.634435E+001 -1.563384E+002 -4.876195E-002 -5.876774E+001
  13.4000     -3.988538E-002 -6.065871E+001 -7.664825E+001 -1.477350E+002 -7.600800E+001 -1.457572E+002 -5.258036E-002 -5.947926E+001
  13.5000     -4.278425E-002 -6.138947E+001 -7.696927E+001 -1.468009E+002 -7.687444E+001 -1.464587E+002 -5.039566E-002 -6.022561E+001
  13.6000     -4.400523E-002 -6.215437E+001 -7.784422E+001 -1.522123E+002 -7.826361E+001 -1.547788E+002 -5.470842E-002 -6.095249E+001
  13.7000     -4.521611E-002 -6.292097E+001 -7.839597E+001 -1.449551E+002 -7.936286E+001 -1.471463E+002 -5.568085E-002 -6.172918E+001
  13.8000     -4.906441E-002 -6.369942E+001 -8.104248E+001 -1.491918E+002 -7.976323E+001 -1.486091E+002 -5.986938E-002 -6.249090E+001
  13.9000     -4.990333E-002 -6.451040E+001 -8.211231E+001 -1.516696E+002 -8.207733E+001 -1.460094E+002 -6.110411E-002 -6.328309E+001
  14.0000     -5.321176E-002 -6.532204E+001 -8.652703E+001 -1.382862E+002 -8.748963E+001 -1.294655E+002 -6.479991E-002 -6.408650E+001
  14.1000     -5.777237E-002 -6.617599E+001 -9.060112E+001 -7.279023E+001 -8.962260E+001 -1.252524E+002 -6.534289E-002 -6.490483E+001
  14.2000     -5.847576E-002 -6.703188E+001 -8.943044E+001 -1.768991E+001 -9.125101E+001 -3.681840E+001 -7.023155E-002 -6.577046E+001
  14.3000     -6.080415E-002 -6.790574E+001 -8.300267E+001 -2.435463E+000 -8.296037E+001  7.379262E-001 -7.191595E-002 -6.663359E+001
  14.4000     -6.337186E-002 -6.880189E+001 -7.802451E+001  7.685914E+000 -7.922478E+001  4.997540E+000 -7.561212E-002 -6.752435E+001
  14.5000     -6.716666E-002 -6.972384E+001 -7.444356E+001  7.563858E+000 -7.467858E+001  6.352211E+000 -7.949467E-002 -6.842133E+001
  14.6000     -7.038814E-002 -7.067297E+001 -7.168748E+001  7.892637E+000 -7.177127E+001  8.951013E+000 -8.510957E-002 -6.936071E+001
  14.7000     -7.657846E-002 -7.164931E+001 -6.916422E+001  1.035422E+001 -6.920872E+001  6.993472E+000 -8.748420E-002 -7.031608E+001
  14.8000     -7.662813E-002 -7.264392E+001 -6.705354E+001  8.558892E+000 -6.712620E+001  7.653186E+000 -9.304380E-002 -7.131374E+001
  14.9000     -8.267788E-002 -7.366994E+001 -6.515233E+001  8.524924E+000 -6.518869E+001  8.048584E+000 -9.692091E-002 -7.232491E+001
  15.0000     -8.552865E-002 -7.472954E+001 -6.330615E+001  6.430172E+000 -6.329247E+001  8.427441E+000 -1.000004E-001 -7.334864E+001
  15.1000     -9.166820E-002 -7.581438E+001 -6.152892E+001  6.259033E+000 -6.143829E+001  6.709372E+000 -1.069347E-001 -7.444477E+001
  15.2000     -9.581101E-002 -7.692538E+001 -5.974828E+001  5.551398E+000 -5.993113E+001  5.433763E+000 -1.107989E-001 -7.555186E+001
  15.3000     -1.008523E-001 -7.809604E+001 -5.809862E+001  4.394957E+000 -5.822679E+001  4.367008E+000 -1.161111E-001 -7.670099E+001
  15.4000     -1.081474E-001 -7.928555E+001 -5.660074E+001  3.176288E+000 -5.656955E+001  2.921932E+000 -1.212396E-001 -7.787921E+001
  15.5000     -1.114017E-001 -8.052638E+001 -5.497571E+001  2.199868E+000 -5.505901E+001  2.011167E+000 -1.307805E-001 -7.910934E+001
  15.6000     -1.197807E-001 -8.180579E+001 -5.349963E+001  7.123749E-001 -5.358723E+001  8.803705E-001 -1.371938E-001 -8.038309E+001
  15.7000     -1.253008E-001 -8.314970E+001 -5.197194E+001 -1.338579E-002 -5.204772E+001 -4.335078E-001 -1.458016E-001 -8.170713E+001
  15.8000     -1.355370E-001 -8.453133E+001 -5.050315E+001 -1.832904E+000 -5.052300E+001 -2.058407E+000 -1.542968E-001 -8.309106E+001
  15.9000     -1.432547E-001 -8.597917E+001 -4.902296E+001 -3.345418E+000 -4.908064E+001 -3.434156E+000 -1.635978E-001 -8.450385E+001
  16.0000     -1.507739E-001 -8.746433E+001 -4.757708E+001 -4.911533E+000 -4.759495E+001 -4.920155E+000 -1.728903E-001 -8.600990E+001
  16.1000     -1.627267E-001 -8.903539E+001 -4.611649E+001 -6.501542E+000 -4.612914E+001 -6.521317E+000 -1.828906E-001 -8.756532E+001
  16.2000     -1.713284E-001 -9.068272E+001 -4.463321E+001 -8.312147E+000 -4.467493E+001 -8.240510E+000 -1.966794E-001 -8.920407E+001
  16.3000     -1.847368E-001 -9.238229E+001 -4.318769E+001 -1.011180E+001 -4.320824E+001 -1.011266E+001 -2.095242E-001 -9.091365E+001
  16.4000     -1.960423E-001 -9.420520E+001 -4.172960E+001 -1.204663E+001 -4.176612E+001 -1.199847E+001 -2.242767E-001 -9.273260E+001
  16.5000     -2.103724E-001 -9.609116E+001 -4.025080E+001 -1.404613E+001 -4.027088E+001 -1.400561E+001 -2.395297E-001 -9.461579E+001
  16.6000     -2.272751E-001 -9.808678E+001 -3.876831E+001 -1.621683E+001 -3.878166E+001 -1.618260E+001 -2.573860E-001 -9.661927E+001
  16.7000     -2.443898E-001 -1.002038E+002 -3.724913E+001 -1.848279E+001 -3.727710E+001 -1.845761E+001 -2.772008E-001 -9.873902E+001
  16.8000     -2.643291E-001 -1.024403E+002 -3.572941E+001 -2.090524E+001 -3.575675E+001 -2.093756E+001 -3.004719E-001 -1.010081E+002
  16.9000     -2.870280E-001 -1.048145E+002 -3.419063E+001 -2.352687E+001 -3.420955E+001 -2.351843E+001 -3.260213E-001 -1.034058E+002
  17.0000     -3.112921E-001 -1.073460E+002 -3.262403E+001 -2.630489E+001 -3.264439E+001 -2.631179E+001 -3.537709E-001 -1.059695E+002
  17.1000     -3.423174E-001 -1.100717E+002 -3.102539E+001 -2.929008E+001 -3.105103E+001 -2.931407E+001 -3.876086E-001 -1.087504E+002
  17.2000     -3.765428E-001 -1.130016E+002 -2.940873E+001 -3.252512E+001 -2.942437E+001 -3.253998E+001 -4.268510E-001 -1.117166E+002
  17.3000     -4.147030E-001 -1.161542E+002 -2.774608E+001 -3.602354E+001 -2.776278E+001 -3.606440E+001 -4.721517E-001 -1.149666E+002
  17.4000     -4.603398E-001 -1.195673E+002 -2.604727E+001 -3.986933E+001 -2.607037E+001 -3.988578E+001 -5.259684E-001 -1.184695E+002
  17.5000     -5.185484E-001 -1.233041E+002 -2.431085E+001 -4.407173E+001 -2.433321E+001 -4.410337E+001 -5.898127E-001 -1.223303E+002
  17.6000     -5.900935E-001 -1.274118E+002 -2.253080E+001 -4.871130E+001 -2.254733E+001 -4.870981E+001 -6.735691E-001 -1.265839E+002
  17.7000     -6.790563E-001 -1.319491E+002 -2.070397E+001 -5.387154E+001 -2.072076E+001 -5.386689E+001 -7.734662E-001 -1.313412E+002
  17.8000     -7.934822E-001 -1.370060E+002 -1.882482E+001 -5.961931E+001 -1.884671E+001 -5.962094E+001 -9.050861E-001 -1.366556E+002
  17.9000     -9.468318E-001 -1.427099E+002 -1.689589E+001 -6.614333E+001 -1.691948E+001 -6.614849E+001 -1.078645E+000 -1.426827E+002
  18.0000     -1.157431E+000 -1.491610E+002 -1.493130E+001 -7.358212E+001 -1.495197E+001 -7.358628E+001 -1.314748E+000 -1.495733E+002
  18.1000     -1.453592E+000 -1.565504E+002 -1.293345E+001 -8.218283E+001 -1.295259E+001 -8.218262E+001 -1.645804E+000 -1.575492E+002
  18.2000     -1.885251E+000 -1.650140E+002 -1.093359E+001 -9.211841E+001 -1.095282E+001 -9.213065E+001 -2.125808E+000 -1.667941E+002
  18.3000     -2.530085E+000 -1.746742E+002 -8.978189E+000 -1.036879E+002 -8.995481E+000 -1.036664E+002 -2.839255E+000 -1.775213E+002
  18.4000     -3.495048E+000  1.745109E+002 -7.143673E+000 -1.169444E+002 -7.165146E+000 -1.169391E+002 -3.910367E+000  1.701500E+002
  18.5000     -4.932088E+000  1.629370E+002 -5.526112E+000 -1.318513E+002 -5.544121E+000 -1.318362E+002 -5.514809E+000  1.563791E+002
  18.6000     -6.990535E+000  1.516914E+002 -4.219108E+000 -1.478908E+002 -4.235127E+000 -1.478681E+002 -7.876154E+000  1.417774E+002
  18.7000     -9.794015E+000  1.426330E+002 -3.265695E+000 -1.642587E+002 -3.280752E+000 -1.642409E+002 -1.127952E+001  1.273535E+002
  18.8000     -1.333500E+001  1.388777E+002 -2.635349E+000  1.798580E+002 -2.647532E+000  1.798728E+002 -1.626247E+001  1.146414E+002
  18.9000     -1.719162E+001  1.451337E+002 -2.246639E+000  1.649784E+002 -2.259242E+000  1.649733E+002 -2.469270E+001  1.081601E+002
  19.0000     -1.982888E+001  1.629180E+002 -2.013436E+000  1.512388E+002 -2.025027E+000  1.512546E+002 -3.567760E+001 -1.376232E+002
  19.1000     -2.022739E+001  1.792972E+002 -1.865801E+000  1.385856E+002 -1.879376E+000  1.385898E+002 -2.479851E+001 -1.164275E+002
  19.2000     -1.991497E+001 -1.744149E+002 -1.760831E+000  1.268097E+002 -1.772964E+000  1.268181E+002 -2.177822E+001 -1.221921E+002
  19.3000     -1.998476E+001 -1.745874E+002 -1.678629E+000  1.157450E+002 -1.692459E+000  1.157331E+002 -2.091903E+001 -1.292004E+002
  19.4000     -2.062459E+001 -1.778889E+002 -1.607125E+000  1.052246E+002 -1.619431E+000  1.052181E+002 -2.115235E+001 -1.355825E+002
  19.5000     -2.186247E+001  1.776663E+002 -1.542864E+000  9.512911E+001 -1.554410E+000  9.513271E+001 -2.221048E+001 -1.409116E+002
  19.6000     -2.371357E+001  1.731465E+002 -1.486338E+000  8.539235E+001 -1.500243E+000  8.539822E+001 -2.394532E+001 -1.442220E+002
  19.7000     -2.627230E+001  1.698351E+002 -1.439422E+000  7.598929E+001 -1.450687E+000  7.598425E+001 -2.645359E+001 -1.443299E+002
  19.8000     -2.966314E+001  1.693952E+002 -1.397628E+000  6.683014E+001 -1.408679E+000  6.683437E+001 -2.969253E+001 -1.381877E+002
  19.9000     -3.395836E+001  1.772097E+002 -1.362456E+000  5.793298E+001 -1.374414E+000  5.792463E+001 -3.323074E+001 -1.186205E+002
  20.0000     -3.778918E+001 -1.570041E+002 -1.333973E+000  4.923467E+001 -1.345958E+000  4.923822E+001 -3.457844E+001 -8.480827E+001
  20.1000     -3.800708E+001 -1.278770E+002 -1.310522E+000  4.075254E+001 -1.321931E+000  4.075266E+001 -3.321988E+001 -5.866879E+001
  20.2000     -3.674582E+001 -1.200260E+002 -1.291964E+000  3.244104E+001 -1.303680E+000  3.243499E+001 -3.151912E+001 -4.455722E+001
  20.3000     -3.668301E+001 -1.273672E+002 -1.273584E+000  2.428256E+001 -1.287520E+000  2.427658E+001 -3.052282E+001 -3.492479E+001
  20.4000     -3.737600E+001 -1.502103E+002 -1.259301E+000  1.625656E+001 -1.273951E+000  1.624238E+001 -2.976374E+001 -2.524479E+001
  20.5000     -3.700338E+001  1.702974E+002 -1.251702E+000  8.329035E+000 -1.260395E+000  8.332249E+000 -2.903184E+001 -1.422569E+001
  20.6000     -3.374089E+001  1.337848E+002 -1.243120E+000  5.117143E-001 -1.255077E+000  5.102916E-001 -2.787838E+001 -2.899732E+000
  20.7000     -2.988833E+001  1.110216E+002 -1.238836E+000 -7.214147E+000 -1.248438E+000 -7.218026E+000 -2.631882E+001  6.543525E+000
  20.8000     -2.667861E+001  9.635436E+001 -1.238253E+000 -1.486924E+001 -1.250997E+000 -1.487375E+001 -2.456227E+001  1.260336E+001
  20.9000     -2.414088E+001  8.537965E+001 -1.242638E+000 -2.246070E+001 -1.252441E+000 -2.246490E+001 -2.286978E+001  1.529078E+001
  21.0000     -2.211984E+001  7.640501E+001 -1.250307E+000 -2.998667E+001 -1.261135E+000 -2.998460E+001 -2.136713E+001  1.548233E+001
  21.1000     -2.054745E+001  6.854723E+001 -1.258912E+000 -3.746895E+001 -1.270798E+000 -3.747282E+001 -2.013376E+001  1.383245E+001
  21.2000     -1.933653E+001  6.142023E+001 -1.274048E+000 -4.491054E+001 -1.284526E+000 -4.490378E+001 -1.916369E+001  1.091872E+001
  21.3000     -1.844556E+001  5.509510E+001 -1.289273E+000 -5.232108E+001 -1.299623E+000 -5.230540E+001 -1.846788E+001  7.003750E+000
  21.4000     -1.787208E+001  4.943280E+001 -1.302527E+000 -5.971937E+001 -1.312823E+000 -5.972694E+001 -1.807172E+001  2.397182E+000
  21.5000     -1.757649E+001  4.476449E+001 -1.314698E+000 -6.714220E+001 -1.325360E+000 -6.713979E+001 -1.800805E+001 -2.931328E+000
  21.6000     -1.758464E+001  4.111312E+001 -1.326028E+000 -7.462749E+001 -1.338187E+000 -7.463068E+001 -1.834212E+001 -8.624527E+000
  21.7000     -1.790119E+001  3.925713E+001 -1.340664E+000 -8.219601E+001 -1.350067E+000 -8.219276E+001 -1.918849E+001 -1.515383E+001
  21.8000     -1.853175E+001  4.028341E+001 -1.351950E+000 -8.988496E+001 -1.364051E+000 -8.990339E+001 -2.081568E+001 -2.235908E+001
  21.9000     -1.933782E+001  4.594048E+001 -1.376663E+000 -9.776865E+001 -1.387289E+000 -9.778452E+001 -2.386924E+001 -3.127328E+001
  22.0000     -1.979896E+001  5.817726E+001 -1.411773E+000 -1.058762E+002 -1.425616E+000 -1.058785E+002 -3.097266E+001 -4.804826E+001
  22.1000     -1.904364E+001  7.479134E+001 -1.475170E+000 -1.142311E+002 -1.487090E+000 -1.142352E+002 -3.360971E+001  1.643997E+002
  22.2000     -1.693148E+001  8.794512E+001 -1.579034E+000 -1.228549E+002 -1.591173E+000 -1.228649E+002 -2.241666E+001  1.399886E+002
  22.3000     -1.432015E+001  9.407243E+001 -1.735481E+000 -1.317537E+002 -1.749164E+000 -1.317720E+002 -1.702844E+001  1.288232E+002
  22.4000     -1.185008E+001  9.457536E+001 -1.965055E+000 -1.408624E+002 -1.980234E+000 -1.408652E+002 -1.341311E+001  1.192177E+002
  22.5000     -9.704270E+000  9.174448E+001 -2.281165E+000 -1.501127E+002 -2.295488E+000 -1.500877E+002 -1.069844E+001  1.100189E+002
